# //  Questa Intel Starter FPGA Edition-64
# //  Version 2021.2 linux_x86_64 Apr 14 2021
# //
# //  Copyright 1991-2021 Mentor Graphics Corporation
# //  All Rights Reserved.
# //
# //  QuestaSim and its associated documentation contain trade
# //  secrets and commercial or financial information that are the property of
# //  Mentor Graphics Corporation and are privileged, confidential,
# //  and exempt from disclosure under the Freedom of Information Act,
# //  5 U.S.C. Section 552. Furthermore, this information
# //  is prohibited from disclosure under the Trade Secrets Act,
# //  18 U.S.C. Section 1905.
# //
# do tb/vsim/vsim.do
# 
# Create the work library
# vlib work
# 
# Compile the packages
# vlog -sv tb/pkg_tb.sv
# Questa Intel Starter FPGA Edition-64 vlog 2021.2 Compiler 2021.04 Apr 14 2021
# Start time: 10:57:10 on Jul 30,2024
# vlog -reportprogress 300 -sv tb/pkg_tb.sv 
# -- Compiling package pkg_tb
# 
# Top level modules:
# 	--none--
# End time: 10:57:10 on Jul 30,2024, Elapsed time: 0:00:00
# Errors: 0, Warnings: 0
# 
# Compile the design and testbench
# vlog -sv rtl/axil_decoder_addr_wr.sv
# Questa Intel Starter FPGA Edition-64 vlog 2021.2 Compiler 2021.04 Apr 14 2021
# Start time: 10:57:10 on Jul 30,2024
# vlog -reportprogress 300 -sv rtl/axil_decoder_addr_wr.sv 
# -- Compiling module axil_decoder_addr_wr
# 
# Top level modules:
# 	axil_decoder_addr_wr
# End time: 10:57:10 on Jul 30,2024, Elapsed time: 0:00:00
# Errors: 0, Warnings: 0
# vlog -sv rtl/axil_response_addr_invalid_wr.sv
# Questa Intel Starter FPGA Edition-64 vlog 2021.2 Compiler 2021.04 Apr 14 2021
# Start time: 10:57:10 on Jul 30,2024
# vlog -reportprogress 300 -sv rtl/axil_response_addr_invalid_wr.sv 
# -- Compiling module axil_response_addr_invalid_wr
# 
# Top level modules:
# 	axil_response_addr_invalid_wr
# End time: 10:57:10 on Jul 30,2024, Elapsed time: 0:00:00
# Errors: 0, Warnings: 0
# vlog -sv rtl/axil_mux_wr.sv
# Questa Intel Starter FPGA Edition-64 vlog 2021.2 Compiler 2021.04 Apr 14 2021
# Start time: 10:57:10 on Jul 30,2024
# vlog -reportprogress 300 -sv rtl/axil_mux_wr.sv 
# -- Compiling module axil_mux_wr
# 
# Top level modules:
# 	axil_mux_wr
# End time: 10:57:10 on Jul 30,2024, Elapsed time: 0:00:00
# Errors: 0, Warnings: 0
# vlog -sv rtl/axil_arbiter_priority_wr.sv
# Questa Intel Starter FPGA Edition-64 vlog 2021.2 Compiler 2021.04 Apr 14 2021
# Start time: 10:57:10 on Jul 30,2024
# vlog -reportprogress 300 -sv rtl/axil_arbiter_priority_wr.sv 
# -- Compiling module axil_arbiter_priority_wr
# 
# Top level modules:
# 	axil_arbiter_priority_wr
# End time: 10:57:10 on Jul 30,2024, Elapsed time: 0:00:00
# Errors: 0, Warnings: 0
# vlog -sv rtl/axil_crossbar_ms_wr.sv
# Questa Intel Starter FPGA Edition-64 vlog 2021.2 Compiler 2021.04 Apr 14 2021
# Start time: 10:57:10 on Jul 30,2024
# vlog -reportprogress 300 -sv rtl/axil_crossbar_ms_wr.sv 
# -- Compiling module axil_crossbar_ms_wr
# ** Warning: rtl/axil_crossbar_ms_wr.sv(16): (vlog-13314) Defaulting port 'm_axil_awaddr' kind to 'var' rather than 'wire' due to default compile option setting of -svinputport=relaxed.
# ** Warning: rtl/axil_crossbar_ms_wr.sv(20): (vlog-13314) Defaulting port 'm_axil_wdata' kind to 'var' rather than 'wire' due to default compile option setting of -svinputport=relaxed.
# ** Warning: rtl/axil_crossbar_ms_wr.sv(21): (vlog-13314) Defaulting port 'm_axil_wstrb' kind to 'var' rather than 'wire' due to default compile option setting of -svinputport=relaxed.
# 
# Top level modules:
# 	axil_crossbar_ms_wr
# End time: 10:57:10 on Jul 30,2024, Elapsed time: 0:00:00
# Errors: 0, Warnings: 3
# vlog -sv rtl/axil_crossbar_sm_wr.sv
# Questa Intel Starter FPGA Edition-64 vlog 2021.2 Compiler 2021.04 Apr 14 2021
# Start time: 10:57:11 on Jul 30,2024
# vlog -reportprogress 300 -sv rtl/axil_crossbar_sm_wr.sv 
# -- Compiling module axil_crossbar_sm_wr
# ** Warning: rtl/axil_crossbar_sm_wr.sv(36): (vlog-13314) Defaulting port 's_axil_bresp' kind to 'var' rather than 'wire' due to default compile option setting of -svinputport=relaxed.
# 
# Top level modules:
# 	axil_crossbar_sm_wr
# End time: 10:57:11 on Jul 30,2024, Elapsed time: 0:00:00
# Errors: 0, Warnings: 1
# vlog -sv rtl/axil_decoder_addr_rd.sv
# Questa Intel Starter FPGA Edition-64 vlog 2021.2 Compiler 2021.04 Apr 14 2021
# Start time: 10:57:11 on Jul 30,2024
# vlog -reportprogress 300 -sv rtl/axil_decoder_addr_rd.sv 
# -- Compiling module axil_decoder_addr_rd
# 
# Top level modules:
# 	axil_decoder_addr_rd
# End time: 10:57:11 on Jul 30,2024, Elapsed time: 0:00:00
# Errors: 0, Warnings: 0
# vlog -sv rtl/axil_response_addr_invalid_rd.sv
# Questa Intel Starter FPGA Edition-64 vlog 2021.2 Compiler 2021.04 Apr 14 2021
# Start time: 10:57:11 on Jul 30,2024
# vlog -reportprogress 300 -sv rtl/axil_response_addr_invalid_rd.sv 
# -- Compiling module axil_response_addr_invalid_rd
# 
# Top level modules:
# 	axil_response_addr_invalid_rd
# End time: 10:57:11 on Jul 30,2024, Elapsed time: 0:00:00
# Errors: 0, Warnings: 0
# vlog -sv rtl/axil_mux_rd.sv
# Questa Intel Starter FPGA Edition-64 vlog 2021.2 Compiler 2021.04 Apr 14 2021
# Start time: 10:57:11 on Jul 30,2024
# vlog -reportprogress 300 -sv rtl/axil_mux_rd.sv 
# -- Compiling module axil_mux_rd
# 
# Top level modules:
# 	axil_mux_rd
# End time: 10:57:11 on Jul 30,2024, Elapsed time: 0:00:00
# Errors: 0, Warnings: 0
# vlog -sv rtl/axil_arbiter_priority_rd.sv
# Questa Intel Starter FPGA Edition-64 vlog 2021.2 Compiler 2021.04 Apr 14 2021
# Start time: 10:57:11 on Jul 30,2024
# vlog -reportprogress 300 -sv rtl/axil_arbiter_priority_rd.sv 
# -- Compiling module axil_arbiter_priority_rd
# 
# Top level modules:
# 	axil_arbiter_priority_rd
# End time: 10:57:11 on Jul 30,2024, Elapsed time: 0:00:00
# Errors: 0, Warnings: 0
# vlog -sv rtl/axil_crossbar_ms_rd.sv
# Questa Intel Starter FPGA Edition-64 vlog 2021.2 Compiler 2021.04 Apr 14 2021
# Start time: 10:57:11 on Jul 30,2024
# vlog -reportprogress 300 -sv rtl/axil_crossbar_ms_rd.sv 
# -- Compiling module axil_crossbar_ms_rd
# ** Warning: rtl/axil_crossbar_ms_rd.sv(16): (vlog-13314) Defaulting port 'm_axil_araddr' kind to 'var' rather than 'wire' due to default compile option setting of -svinputport=relaxed.
# 
# Top level modules:
# 	axil_crossbar_ms_rd
# End time: 10:57:11 on Jul 30,2024, Elapsed time: 0:00:00
# Errors: 0, Warnings: 1
# vlog -sv rtl/axil_crossbar_sm_rd.sv
# Questa Intel Starter FPGA Edition-64 vlog 2021.2 Compiler 2021.04 Apr 14 2021
# Start time: 10:57:11 on Jul 30,2024
# vlog -reportprogress 300 -sv rtl/axil_crossbar_sm_rd.sv 
# -- Compiling module axil_crossbar_sm_rd
# ** Warning: rtl/axil_crossbar_sm_rd.sv(31): (vlog-13314) Defaulting port 's_axil_rdata' kind to 'var' rather than 'wire' due to default compile option setting of -svinputport=relaxed.
# ** Warning: rtl/axil_crossbar_sm_rd.sv(32): (vlog-13314) Defaulting port 's_axil_rresp' kind to 'var' rather than 'wire' due to default compile option setting of -svinputport=relaxed.
# 
# Top level modules:
# 	axil_crossbar_sm_rd
# End time: 10:57:11 on Jul 30,2024, Elapsed time: 0:00:00
# Errors: 0, Warnings: 2
# vlog -sv rtl/axil_interconnect.sv
# Questa Intel Starter FPGA Edition-64 vlog 2021.2 Compiler 2021.04 Apr 14 2021
# Start time: 10:57:11 on Jul 30,2024
# vlog -reportprogress 300 -sv rtl/axil_interconnect.sv 
# -- Compiling module axil_interconnect
# ** Warning: rtl/axil_interconnect.sv(21): (vlog-13314) Defaulting port 'm_axil_awaddr' kind to 'var' rather than 'wire' due to default compile option setting of -svinputport=relaxed.
# ** Warning: rtl/axil_interconnect.sv(26): (vlog-13314) Defaulting port 'm_axil_wdata' kind to 'var' rather than 'wire' due to default compile option setting of -svinputport=relaxed.
# ** Warning: rtl/axil_interconnect.sv(27): (vlog-13314) Defaulting port 'm_axil_wstrb' kind to 'var' rather than 'wire' due to default compile option setting of -svinputport=relaxed.
# ** Warning: rtl/axil_interconnect.sv(52): (vlog-13314) Defaulting port 's_axil_bresp' kind to 'var' rather than 'wire' due to default compile option setting of -svinputport=relaxed.
# ** Warning: rtl/axil_interconnect.sv(61): (vlog-13314) Defaulting port 'm_axil_araddr' kind to 'var' rather than 'wire' due to default compile option setting of -svinputport=relaxed.
# ** Warning: rtl/axil_interconnect.sv(81): (vlog-13314) Defaulting port 's_axil_rdata' kind to 'var' rather than 'wire' due to default compile option setting of -svinputport=relaxed.
# ** Warning: rtl/axil_interconnect.sv(82): (vlog-13314) Defaulting port 's_axil_rresp' kind to 'var' rather than 'wire' due to default compile option setting of -svinputport=relaxed.
# 
# Top level modules:
# 	axil_interconnect
# End time: 10:57:11 on Jul 30,2024, Elapsed time: 0:00:00
# Errors: 0, Warnings: 7
# vlog -sv rtl/axil_interconnect_wrapper_sv.sv
# Questa Intel Starter FPGA Edition-64 vlog 2021.2 Compiler 2021.04 Apr 14 2021
# Start time: 10:57:11 on Jul 30,2024
# vlog -reportprogress 300 -sv rtl/axil_interconnect_wrapper_sv.sv 
# -- Compiling module axil_interconnect_wrapper_sv
# ** Warning: rtl/axil_interconnect_wrapper_sv.sv(52): (vlog-13314) Defaulting port 'm_axil_awaddr' kind to 'var' rather than 'wire' due to default compile option setting of -svinputport=relaxed.
# ** Warning: rtl/axil_interconnect_wrapper_sv.sv(57): (vlog-13314) Defaulting port 'm_axil_wdata' kind to 'var' rather than 'wire' due to default compile option setting of -svinputport=relaxed.
# ** Warning: rtl/axil_interconnect_wrapper_sv.sv(58): (vlog-13314) Defaulting port 'm_axil_wstrb' kind to 'var' rather than 'wire' due to default compile option setting of -svinputport=relaxed.
# ** Warning: rtl/axil_interconnect_wrapper_sv.sv(83): (vlog-13314) Defaulting port 's_axil_bresp' kind to 'var' rather than 'wire' due to default compile option setting of -svinputport=relaxed.
# ** Warning: rtl/axil_interconnect_wrapper_sv.sv(92): (vlog-13314) Defaulting port 'm_axil_araddr' kind to 'var' rather than 'wire' due to default compile option setting of -svinputport=relaxed.
# ** Warning: rtl/axil_interconnect_wrapper_sv.sv(112): (vlog-13314) Defaulting port 's_axil_rdata' kind to 'var' rather than 'wire' due to default compile option setting of -svinputport=relaxed.
# ** Warning: rtl/axil_interconnect_wrapper_sv.sv(113): (vlog-13314) Defaulting port 's_axil_rresp' kind to 'var' rather than 'wire' due to default compile option setting of -svinputport=relaxed.
# 
# Top level modules:
# 	axil_interconnect_wrapper_sv
# End time: 10:57:11 on Jul 30,2024, Elapsed time: 0:00:00
# Errors: 0, Warnings: 7
# vlog -sv tb/axil_interconnect_tb.sv
# Questa Intel Starter FPGA Edition-64 vlog 2021.2 Compiler 2021.04 Apr 14 2021
# Start time: 10:57:11 on Jul 30,2024
# vlog -reportprogress 300 -sv tb/axil_interconnect_tb.sv 
# -- Compiling module axil_interconnect_tb
# -- Importing package pkg_tb
# 
# Top level modules:
# 	axil_interconnect_tb
# End time: 10:57:11 on Jul 30,2024, Elapsed time: 0:00:00
# Errors: 0, Warnings: 0
# 
# Set the number of master and slave interfaces
# set NUMBER_MASTER   32
# 32
# set NUMBER_SLAVE    16
# 16
# 
# Simulate the testbench
# vsim -t 1ns -L altera_mf_ver -voptargs="+acc" axil_interconnect_tb
# vsim -t 1ns -L altera_mf_ver -voptargs=""+acc"" axil_interconnect_tb 
# Start time: 10:57:11 on Jul 30,2024
# ** Note: (vsim-3812) Design is being optimized...
# ** Warning: rtl/axil_interconnect.sv(21): (vopt-13314) Defaulting port 'm_axil_awaddr' kind to 'var' rather than 'wire' due to default compile option setting of -svinputport=relaxed.
# ** Warning: rtl/axil_interconnect.sv(26): (vopt-13314) Defaulting port 'm_axil_wdata' kind to 'var' rather than 'wire' due to default compile option setting of -svinputport=relaxed.
# ** Warning: rtl/axil_interconnect.sv(27): (vopt-13314) Defaulting port 'm_axil_wstrb' kind to 'var' rather than 'wire' due to default compile option setting of -svinputport=relaxed.
# ** Warning: rtl/axil_interconnect.sv(52): (vopt-13314) Defaulting port 's_axil_bresp' kind to 'var' rather than 'wire' due to default compile option setting of -svinputport=relaxed.
# ** Warning: rtl/axil_interconnect.sv(61): (vopt-13314) Defaulting port 'm_axil_araddr' kind to 'var' rather than 'wire' due to default compile option setting of -svinputport=relaxed.
# ** Warning: rtl/axil_interconnect.sv(81): (vopt-13314) Defaulting port 's_axil_rdata' kind to 'var' rather than 'wire' due to default compile option setting of -svinputport=relaxed.
# ** Warning: rtl/axil_interconnect.sv(82): (vopt-13314) Defaulting port 's_axil_rresp' kind to 'var' rather than 'wire' due to default compile option setting of -svinputport=relaxed.
# ** Warning: rtl/axil_interconnect_wrapper_sv.sv(52): (vopt-13314) Defaulting port 'm_axil_awaddr' kind to 'var' rather than 'wire' due to default compile option setting of -svinputport=relaxed.
# ** Warning: rtl/axil_interconnect_wrapper_sv.sv(57): (vopt-13314) Defaulting port 'm_axil_wdata' kind to 'var' rather than 'wire' due to default compile option setting of -svinputport=relaxed.
# ** Warning: rtl/axil_interconnect_wrapper_sv.sv(58): (vopt-13314) Defaulting port 'm_axil_wstrb' kind to 'var' rather than 'wire' due to default compile option setting of -svinputport=relaxed.
# ** Warning: rtl/axil_interconnect_wrapper_sv.sv(83): (vopt-13314) Defaulting port 's_axil_bresp' kind to 'var' rather than 'wire' due to default compile option setting of -svinputport=relaxed.
# ** Warning: rtl/axil_interconnect_wrapper_sv.sv(92): (vopt-13314) Defaulting port 'm_axil_araddr' kind to 'var' rather than 'wire' due to default compile option setting of -svinputport=relaxed.
# ** Warning: rtl/axil_interconnect_wrapper_sv.sv(112): (vopt-13314) Defaulting port 's_axil_rdata' kind to 'var' rather than 'wire' due to default compile option setting of -svinputport=relaxed.
# ** Warning: rtl/axil_interconnect_wrapper_sv.sv(113): (vopt-13314) Defaulting port 's_axil_rresp' kind to 'var' rather than 'wire' due to default compile option setting of -svinputport=relaxed.
# ** Warning: rtl/axil_crossbar_ms_wr.sv(16): (vopt-13314) Defaulting port 'm_axil_awaddr' kind to 'var' rather than 'wire' due to default compile option setting of -svinputport=relaxed.
# ** Warning: rtl/axil_crossbar_ms_wr.sv(20): (vopt-13314) Defaulting port 'm_axil_wdata' kind to 'var' rather than 'wire' due to default compile option setting of -svinputport=relaxed.
# ** Warning: rtl/axil_crossbar_ms_wr.sv(21): (vopt-13314) Defaulting port 'm_axil_wstrb' kind to 'var' rather than 'wire' due to default compile option setting of -svinputport=relaxed.
# ** Warning: rtl/axil_crossbar_sm_rd.sv(31): (vopt-13314) Defaulting port 's_axil_rdata' kind to 'var' rather than 'wire' due to default compile option setting of -svinputport=relaxed.
# ** Warning: rtl/axil_crossbar_sm_rd.sv(32): (vopt-13314) Defaulting port 's_axil_rresp' kind to 'var' rather than 'wire' due to default compile option setting of -svinputport=relaxed.
# ** Warning: rtl/axil_crossbar_sm_wr.sv(36): (vopt-13314) Defaulting port 's_axil_bresp' kind to 'var' rather than 'wire' due to default compile option setting of -svinputport=relaxed.
# ** Warning: rtl/axil_crossbar_ms_rd.sv(16): (vopt-13314) Defaulting port 'm_axil_araddr' kind to 'var' rather than 'wire' due to default compile option setting of -svinputport=relaxed.
# ** Note: (vsim-12126) Error and warning message counts have been restored: Errors=0, Warnings=21.
# Loading sv_std.std
# Loading work.pkg_tb(fast)
# Loading work.axil_interconnect_tb(fast)
# Loading work.axil_interconnect_wrapper_sv(fast)
# Loading work.axil_interconnect(fast)
# Loading work.axil_decoder_addr_wr(fast)
# Loading work.axil_arbiter_priority_wr(fast)
# Loading work.axil_crossbar_ms_wr(fast)
# Loading work.axil_crossbar_sm_wr(fast)
# Loading work.axil_decoder_addr_rd(fast)
# Loading work.axil_arbiter_priority_rd(fast)
# Loading work.axil_crossbar_ms_rd(fast)
# Loading work.axil_crossbar_sm_rd(fast)
# ** Error: (vsim-3906) Connection type 'reg[31:0]$[0:15]' is incompatible with 'reg[31:0]$[0:16]' for  port (s_axil_awaddr):  Array ranges [0:16] & [0:15] have different lengths.
#    Time: 0 ns  Iteration: 0  Instance: /axil_interconnect_tb/axil_interconnect_wrapper_sv_inst/axil_interconnect_inst File: rtl/axil_interconnect_wrapper_sv.sv Line: 129
# ** Warning: (vsim-3015) [PCDPC] - Port size (17) does not match connection size (16) for port 's_axil_awvalid'. The port definition is at: rtl/axil_interconnect.sv(42).
#    Time: 0 ns  Iteration: 0  Instance: /axil_interconnect_tb/axil_interconnect_wrapper_sv_inst/axil_interconnect_inst File: rtl/axil_interconnect_wrapper_sv.sv Line: 129
# ** Warning: (vsim-3015) [PCDPC] - Port size (17) does not match connection size (16) for port 's_axil_awready'. The port definition is at: rtl/axil_interconnect.sv(43).
#    Time: 0 ns  Iteration: 0  Instance: /axil_interconnect_tb/axil_interconnect_wrapper_sv_inst/axil_interconnect_inst File: rtl/axil_interconnect_wrapper_sv.sv Line: 129
# ** Error: (vsim-3906) Connection type 'reg[31:0]$[0:15]' is incompatible with 'reg[31:0]$[0:16]' for  port (s_axil_wdata):  Array ranges [0:16] & [0:15] have different lengths.
#    Time: 0 ns  Iteration: 0  Instance: /axil_interconnect_tb/axil_interconnect_wrapper_sv_inst/axil_interconnect_inst File: rtl/axil_interconnect_wrapper_sv.sv Line: 129
# ** Error: (vsim-3906) Connection type 'reg[3:0]$[0:15]' is incompatible with 'reg[3:0]$[0:16]' for  port (s_axil_wstrb):  Array ranges [0:16] & [0:15] have different lengths.
#    Time: 0 ns  Iteration: 0  Instance: /axil_interconnect_tb/axil_interconnect_wrapper_sv_inst/axil_interconnect_inst File: rtl/axil_interconnect_wrapper_sv.sv Line: 129
# ** Warning: (vsim-3015) [PCDPC] - Port size (17) does not match connection size (16) for port 's_axil_wvalid'. The port definition is at: rtl/axil_interconnect.sv(48).
#    Time: 0 ns  Iteration: 0  Instance: /axil_interconnect_tb/axil_interconnect_wrapper_sv_inst/axil_interconnect_inst File: rtl/axil_interconnect_wrapper_sv.sv Line: 129
# ** Warning: (vsim-3015) [PCDPC] - Port size (17) does not match connection size (16) for port 's_axil_wready'. The port definition is at: rtl/axil_interconnect.sv(49).
#    Time: 0 ns  Iteration: 0  Instance: /axil_interconnect_tb/axil_interconnect_wrapper_sv_inst/axil_interconnect_inst File: rtl/axil_interconnect_wrapper_sv.sv Line: 129
# ** Error: (vsim-3906) Connection type 'reg[1:0]$[0:15]' is incompatible with 'reg[1:0]$[0:16]' for  port (s_axil_bresp):  Array ranges [0:16] & [0:15] have different lengths.
#    Time: 0 ns  Iteration: 0  Instance: /axil_interconnect_tb/axil_interconnect_wrapper_sv_inst/axil_interconnect_inst File: rtl/axil_interconnect_wrapper_sv.sv Line: 129
# ** Warning: (vsim-3015) [PCDPC] - Port size (17) does not match connection size (16) for port 's_axil_bvalid'. The port definition is at: rtl/axil_interconnect.sv(53).
#    Time: 0 ns  Iteration: 0  Instance: /axil_interconnect_tb/axil_interconnect_wrapper_sv_inst/axil_interconnect_inst File: rtl/axil_interconnect_wrapper_sv.sv Line: 129
# ** Warning: (vsim-3015) [PCDPC] - Port size (17) does not match connection size (16) for port 's_axil_bready'. The port definition is at: rtl/axil_interconnect.sv(54).
#    Time: 0 ns  Iteration: 0  Instance: /axil_interconnect_tb/axil_interconnect_wrapper_sv_inst/axil_interconnect_inst File: rtl/axil_interconnect_wrapper_sv.sv Line: 129
# ** Error: (vsim-3906) Connection type 'reg[31:0]$[0:15]' is incompatible with 'reg[31:0]$[0:16]' for  port (s_axil_araddr):  Array ranges [0:16] & [0:15] have different lengths.
#    Time: 0 ns  Iteration: 0  Instance: /axil_interconnect_tb/axil_interconnect_wrapper_sv_inst/axil_interconnect_inst File: rtl/axil_interconnect_wrapper_sv.sv Line: 129
# ** Warning: (vsim-3015) [PCDPC] - Port size (17) does not match connection size (16) for port 's_axil_arvalid'. The port definition is at: rtl/axil_interconnect.sv(77).
#    Time: 0 ns  Iteration: 0  Instance: /axil_interconnect_tb/axil_interconnect_wrapper_sv_inst/axil_interconnect_inst File: rtl/axil_interconnect_wrapper_sv.sv Line: 129
# ** Warning: (vsim-3015) [PCDPC] - Port size (17) does not match connection size (16) for port 's_axil_arready'. The port definition is at: rtl/axil_interconnect.sv(78).
#    Time: 0 ns  Iteration: 0  Instance: /axil_interconnect_tb/axil_interconnect_wrapper_sv_inst/axil_interconnect_inst File: rtl/axil_interconnect_wrapper_sv.sv Line: 129
# ** Error: (vsim-3906) Connection type 'reg[31:0]$[0:15]' is incompatible with 'reg[31:0]$[0:16]' for  port (s_axil_rdata):  Array ranges [0:16] & [0:15] have different lengths.
#    Time: 0 ns  Iteration: 0  Instance: /axil_interconnect_tb/axil_interconnect_wrapper_sv_inst/axil_interconnect_inst File: rtl/axil_interconnect_wrapper_sv.sv Line: 129
# ** Error: (vsim-3906) Connection type 'reg[1:0]$[0:15]' is incompatible with 'reg[1:0]$[0:16]' for  port (s_axil_rresp):  Array ranges [0:16] & [0:15] have different lengths.
#    Time: 0 ns  Iteration: 0  Instance: /axil_interconnect_tb/axil_interconnect_wrapper_sv_inst/axil_interconnect_inst File: rtl/axil_interconnect_wrapper_sv.sv Line: 129
# ** Warning: (vsim-3015) [PCDPC] - Port size (17) does not match connection size (16) for port 's_axil_rvalid'. The port definition is at: rtl/axil_interconnect.sv(83).
#    Time: 0 ns  Iteration: 0  Instance: /axil_interconnect_tb/axil_interconnect_wrapper_sv_inst/axil_interconnect_inst File: rtl/axil_interconnect_wrapper_sv.sv Line: 129
# ** Warning: (vsim-3015) [PCDPC] - Port size (17) does not match connection size (16) for port 's_axil_rready'. The port definition is at: rtl/axil_interconnect.sv(84).
#    Time: 0 ns  Iteration: 0  Instance: /axil_interconnect_tb/axil_interconnect_wrapper_sv_inst/axil_interconnect_inst File: rtl/axil_interconnect_wrapper_sv.sv Line: 129
# ** Warning: (vsim-3015) [PCDPC] - Port size (16) does not match connection size (17) for port 'slv_valid'. The port definition is at: rtl/axil_decoder_addr_wr.sv(14).
#    Time: 0 ns  Iteration: 0  Instance: /axil_interconnect_tb/axil_interconnect_wrapper_sv_inst/axil_interconnect_inst/axil_decoder_addr_wr[0]/axil_decoder_addr_wr_inst File: rtl/axil_interconnect.sv Line: 146
# ** Warning: (vsim-3015) [PCDPC] - Port size (16) does not match connection size (17) for port 'slv_valid'. The port definition is at: rtl/axil_decoder_addr_wr.sv(14).
#    Time: 0 ns  Iteration: 0  Instance: /axil_interconnect_tb/axil_interconnect_wrapper_sv_inst/axil_interconnect_inst/axil_decoder_addr_wr[1]/axil_decoder_addr_wr_inst File: rtl/axil_interconnect.sv Line: 146
# ** Warning: (vsim-3015) [PCDPC] - Port size (16) does not match connection size (17) for port 'slv_valid'. The port definition is at: rtl/axil_decoder_addr_wr.sv(14).
#    Time: 0 ns  Iteration: 0  Instance: /axil_interconnect_tb/axil_interconnect_wrapper_sv_inst/axil_interconnect_inst/axil_decoder_addr_wr[2]/axil_decoder_addr_wr_inst File: rtl/axil_interconnect.sv Line: 146
# ** Warning: (vsim-3015) [PCDPC] - Port size (16) does not match connection size (17) for port 'slv_valid'. The port definition is at: rtl/axil_decoder_addr_wr.sv(14).
#    Time: 0 ns  Iteration: 0  Instance: /axil_interconnect_tb/axil_interconnect_wrapper_sv_inst/axil_interconnect_inst/axil_decoder_addr_wr[3]/axil_decoder_addr_wr_inst File: rtl/axil_interconnect.sv Line: 146
# ** Warning: (vsim-3015) [PCDPC] - Port size (16) does not match connection size (17) for port 'slv_valid'. The port definition is at: rtl/axil_decoder_addr_wr.sv(14).
#    Time: 0 ns  Iteration: 0  Instance: /axil_interconnect_tb/axil_interconnect_wrapper_sv_inst/axil_interconnect_inst/axil_decoder_addr_wr[4]/axil_decoder_addr_wr_inst File: rtl/axil_interconnect.sv Line: 146
# ** Warning: (vsim-3015) [PCDPC] - Port size (16) does not match connection size (17) for port 'slv_valid'. The port definition is at: rtl/axil_decoder_addr_wr.sv(14).
#    Time: 0 ns  Iteration: 0  Instance: /axil_interconnect_tb/axil_interconnect_wrapper_sv_inst/axil_interconnect_inst/axil_decoder_addr_wr[5]/axil_decoder_addr_wr_inst File: rtl/axil_interconnect.sv Line: 146
# ** Warning: (vsim-3015) [PCDPC] - Port size (16) does not match connection size (17) for port 'slv_valid'. The port definition is at: rtl/axil_decoder_addr_wr.sv(14).
#    Time: 0 ns  Iteration: 0  Instance: /axil_interconnect_tb/axil_interconnect_wrapper_sv_inst/axil_interconnect_inst/axil_decoder_addr_wr[6]/axil_decoder_addr_wr_inst File: rtl/axil_interconnect.sv Line: 146
# ** Warning: (vsim-3015) [PCDPC] - Port size (16) does not match connection size (17) for port 'slv_valid'. The port definition is at: rtl/axil_decoder_addr_wr.sv(14).
#    Time: 0 ns  Iteration: 0  Instance: /axil_interconnect_tb/axil_interconnect_wrapper_sv_inst/axil_interconnect_inst/axil_decoder_addr_wr[7]/axil_decoder_addr_wr_inst File: rtl/axil_interconnect.sv Line: 146
# ** Warning: (vsim-3015) [PCDPC] - Port size (16) does not match connection size (17) for port 'slv_valid'. The port definition is at: rtl/axil_decoder_addr_wr.sv(14).
#    Time: 0 ns  Iteration: 0  Instance: /axil_interconnect_tb/axil_interconnect_wrapper_sv_inst/axil_interconnect_inst/axil_decoder_addr_wr[8]/axil_decoder_addr_wr_inst File: rtl/axil_interconnect.sv Line: 146
# ** Warning: (vsim-3015) [PCDPC] - Port size (16) does not match connection size (17) for port 'slv_valid'. The port definition is at: rtl/axil_decoder_addr_wr.sv(14).
#    Time: 0 ns  Iteration: 0  Instance: /axil_interconnect_tb/axil_interconnect_wrapper_sv_inst/axil_interconnect_inst/axil_decoder_addr_wr[9]/axil_decoder_addr_wr_inst File: rtl/axil_interconnect.sv Line: 146
# ** Warning: (vsim-3015) [PCDPC] - Port size (16) does not match connection size (17) for port 'slv_valid'. The port definition is at: rtl/axil_decoder_addr_wr.sv(14).
#    Time: 0 ns  Iteration: 0  Instance: /axil_interconnect_tb/axil_interconnect_wrapper_sv_inst/axil_interconnect_inst/axil_decoder_addr_wr[10]/axil_decoder_addr_wr_inst File: rtl/axil_interconnect.sv Line: 146
# ** Warning: (vsim-3015) [PCDPC] - Port size (16) does not match connection size (17) for port 'slv_valid'. The port definition is at: rtl/axil_decoder_addr_wr.sv(14).
#    Time: 0 ns  Iteration: 0  Instance: /axil_interconnect_tb/axil_interconnect_wrapper_sv_inst/axil_interconnect_inst/axil_decoder_addr_wr[11]/axil_decoder_addr_wr_inst File: rtl/axil_interconnect.sv Line: 146
# ** Warning: (vsim-3015) [PCDPC] - Port size (16) does not match connection size (17) for port 'slv_valid'. The port definition is at: rtl/axil_decoder_addr_wr.sv(14).
#    Time: 0 ns  Iteration: 0  Instance: /axil_interconnect_tb/axil_interconnect_wrapper_sv_inst/axil_interconnect_inst/axil_decoder_addr_wr[12]/axil_decoder_addr_wr_inst File: rtl/axil_interconnect.sv Line: 146
# ** Warning: (vsim-3015) [PCDPC] - Port size (16) does not match connection size (17) for port 'slv_valid'. The port definition is at: rtl/axil_decoder_addr_wr.sv(14).
#    Time: 0 ns  Iteration: 0  Instance: /axil_interconnect_tb/axil_interconnect_wrapper_sv_inst/axil_interconnect_inst/axil_decoder_addr_wr[13]/axil_decoder_addr_wr_inst File: rtl/axil_interconnect.sv Line: 146
# ** Warning: (vsim-3015) [PCDPC] - Port size (16) does not match connection size (17) for port 'slv_valid'. The port definition is at: rtl/axil_decoder_addr_wr.sv(14).
#    Time: 0 ns  Iteration: 0  Instance: /axil_interconnect_tb/axil_interconnect_wrapper_sv_inst/axil_interconnect_inst/axil_decoder_addr_wr[14]/axil_decoder_addr_wr_inst File: rtl/axil_interconnect.sv Line: 146
# ** Warning: (vsim-3015) [PCDPC] - Port size (16) does not match connection size (17) for port 'slv_valid'. The port definition is at: rtl/axil_decoder_addr_wr.sv(14).
#    Time: 0 ns  Iteration: 0  Instance: /axil_interconnect_tb/axil_interconnect_wrapper_sv_inst/axil_interconnect_inst/axil_decoder_addr_wr[15]/axil_decoder_addr_wr_inst File: rtl/axil_interconnect.sv Line: 146
# ** Warning: (vsim-3015) [PCDPC] - Port size (16) does not match connection size (17) for port 'slv_valid'. The port definition is at: rtl/axil_decoder_addr_wr.sv(14).
#    Time: 0 ns  Iteration: 0  Instance: /axil_interconnect_tb/axil_interconnect_wrapper_sv_inst/axil_interconnect_inst/axil_decoder_addr_wr[16]/axil_decoder_addr_wr_inst File: rtl/axil_interconnect.sv Line: 146
# ** Warning: (vsim-3015) [PCDPC] - Port size (16) does not match connection size (17) for port 'slv_valid'. The port definition is at: rtl/axil_decoder_addr_wr.sv(14).
#    Time: 0 ns  Iteration: 0  Instance: /axil_interconnect_tb/axil_interconnect_wrapper_sv_inst/axil_interconnect_inst/axil_decoder_addr_wr[17]/axil_decoder_addr_wr_inst File: rtl/axil_interconnect.sv Line: 146
# ** Warning: (vsim-3015) [PCDPC] - Port size (16) does not match connection size (17) for port 'slv_valid'. The port definition is at: rtl/axil_decoder_addr_wr.sv(14).
#    Time: 0 ns  Iteration: 0  Instance: /axil_interconnect_tb/axil_interconnect_wrapper_sv_inst/axil_interconnect_inst/axil_decoder_addr_wr[18]/axil_decoder_addr_wr_inst File: rtl/axil_interconnect.sv Line: 146
# ** Warning: (vsim-3015) [PCDPC] - Port size (16) does not match connection size (17) for port 'slv_valid'. The port definition is at: rtl/axil_decoder_addr_wr.sv(14).
#    Time: 0 ns  Iteration: 0  Instance: /axil_interconnect_tb/axil_interconnect_wrapper_sv_inst/axil_interconnect_inst/axil_decoder_addr_wr[19]/axil_decoder_addr_wr_inst File: rtl/axil_interconnect.sv Line: 146
# ** Warning: (vsim-3015) [PCDPC] - Port size (16) does not match connection size (17) for port 'slv_valid'. The port definition is at: rtl/axil_decoder_addr_wr.sv(14).
#    Time: 0 ns  Iteration: 0  Instance: /axil_interconnect_tb/axil_interconnect_wrapper_sv_inst/axil_interconnect_inst/axil_decoder_addr_wr[20]/axil_decoder_addr_wr_inst File: rtl/axil_interconnect.sv Line: 146
# ** Warning: (vsim-3015) [PCDPC] - Port size (16) does not match connection size (17) for port 'slv_valid'. The port definition is at: rtl/axil_decoder_addr_wr.sv(14).
#    Time: 0 ns  Iteration: 0  Instance: /axil_interconnect_tb/axil_interconnect_wrapper_sv_inst/axil_interconnect_inst/axil_decoder_addr_wr[21]/axil_decoder_addr_wr_inst File: rtl/axil_interconnect.sv Line: 146
# ** Warning: (vsim-3015) [PCDPC] - Port size (16) does not match connection size (17) for port 'slv_valid'. The port definition is at: rtl/axil_decoder_addr_wr.sv(14).
#    Time: 0 ns  Iteration: 0  Instance: /axil_interconnect_tb/axil_interconnect_wrapper_sv_inst/axil_interconnect_inst/axil_decoder_addr_wr[22]/axil_decoder_addr_wr_inst File: rtl/axil_interconnect.sv Line: 146
# ** Warning: (vsim-3015) [PCDPC] - Port size (16) does not match connection size (17) for port 'slv_valid'. The port definition is at: rtl/axil_decoder_addr_wr.sv(14).
#    Time: 0 ns  Iteration: 0  Instance: /axil_interconnect_tb/axil_interconnect_wrapper_sv_inst/axil_interconnect_inst/axil_decoder_addr_wr[23]/axil_decoder_addr_wr_inst File: rtl/axil_interconnect.sv Line: 146
# ** Warning: (vsim-3015) [PCDPC] - Port size (16) does not match connection size (17) for port 'slv_valid'. The port definition is at: rtl/axil_decoder_addr_wr.sv(14).
#    Time: 0 ns  Iteration: 0  Instance: /axil_interconnect_tb/axil_interconnect_wrapper_sv_inst/axil_interconnect_inst/axil_decoder_addr_wr[24]/axil_decoder_addr_wr_inst File: rtl/axil_interconnect.sv Line: 146
# ** Warning: (vsim-3015) [PCDPC] - Port size (16) does not match connection size (17) for port 'slv_valid'. The port definition is at: rtl/axil_decoder_addr_wr.sv(14).
#    Time: 0 ns  Iteration: 0  Instance: /axil_interconnect_tb/axil_interconnect_wrapper_sv_inst/axil_interconnect_inst/axil_decoder_addr_wr[25]/axil_decoder_addr_wr_inst File: rtl/axil_interconnect.sv Line: 146
# ** Warning: (vsim-3015) [PCDPC] - Port size (16) does not match connection size (17) for port 'slv_valid'. The port definition is at: rtl/axil_decoder_addr_wr.sv(14).
#    Time: 0 ns  Iteration: 0  Instance: /axil_interconnect_tb/axil_interconnect_wrapper_sv_inst/axil_interconnect_inst/axil_decoder_addr_wr[26]/axil_decoder_addr_wr_inst File: rtl/axil_interconnect.sv Line: 146
# ** Warning: (vsim-3015) [PCDPC] - Port size (16) does not match connection size (17) for port 'slv_valid'. The port definition is at: rtl/axil_decoder_addr_wr.sv(14).
#    Time: 0 ns  Iteration: 0  Instance: /axil_interconnect_tb/axil_interconnect_wrapper_sv_inst/axil_interconnect_inst/axil_decoder_addr_wr[27]/axil_decoder_addr_wr_inst File: rtl/axil_interconnect.sv Line: 146
# ** Warning: (vsim-3015) [PCDPC] - Port size (16) does not match connection size (17) for port 'slv_valid'. The port definition is at: rtl/axil_decoder_addr_wr.sv(14).
#    Time: 0 ns  Iteration: 0  Instance: /axil_interconnect_tb/axil_interconnect_wrapper_sv_inst/axil_interconnect_inst/axil_decoder_addr_wr[28]/axil_decoder_addr_wr_inst File: rtl/axil_interconnect.sv Line: 146
# ** Warning: (vsim-3015) [PCDPC] - Port size (16) does not match connection size (17) for port 'slv_valid'. The port definition is at: rtl/axil_decoder_addr_wr.sv(14).
#    Time: 0 ns  Iteration: 0  Instance: /axil_interconnect_tb/axil_interconnect_wrapper_sv_inst/axil_interconnect_inst/axil_decoder_addr_wr[29]/axil_decoder_addr_wr_inst File: rtl/axil_interconnect.sv Line: 146
# ** Warning: (vsim-3015) [PCDPC] - Port size (16) does not match connection size (17) for port 'slv_valid'. The port definition is at: rtl/axil_decoder_addr_wr.sv(14).
#    Time: 0 ns  Iteration: 0  Instance: /axil_interconnect_tb/axil_interconnect_wrapper_sv_inst/axil_interconnect_inst/axil_decoder_addr_wr[30]/axil_decoder_addr_wr_inst File: rtl/axil_interconnect.sv Line: 146
# ** Warning: (vsim-3015) [PCDPC] - Port size (16) does not match connection size (17) for port 'slv_valid'. The port definition is at: rtl/axil_decoder_addr_wr.sv(14).
#    Time: 0 ns  Iteration: 0  Instance: /axil_interconnect_tb/axil_interconnect_wrapper_sv_inst/axil_interconnect_inst/axil_decoder_addr_wr[31]/axil_decoder_addr_wr_inst File: rtl/axil_interconnect.sv Line: 146
# ** Warning: (vsim-3015) [PCDPC] - Port size (16) does not match connection size (17) for port 'grant_wr_trans'. The port definition is at: rtl/axil_crossbar_sm_wr.sv(9).
#    Time: 0 ns  Iteration: 0  Instance: /axil_interconnect_tb/axil_interconnect_wrapper_sv_inst/axil_interconnect_inst/axil_crossbar_sm_wr[0]/axil_crossbar_sm_wr_inst File: rtl/axil_interconnect.sv Line: 232
# ** Warning: (vsim-3015) [PCDPC] - Port size (16) does not match connection size (17) for port 's_axil_awready'. The port definition is at: rtl/axil_crossbar_sm_wr.sv(30).
#    Time: 0 ns  Iteration: 0  Instance: /axil_interconnect_tb/axil_interconnect_wrapper_sv_inst/axil_interconnect_inst/axil_crossbar_sm_wr[0]/axil_crossbar_sm_wr_inst File: rtl/axil_interconnect.sv Line: 232
# ** Warning: (vsim-3015) [PCDPC] - Port size (16) does not match connection size (17) for port 's_axil_wready'. The port definition is at: rtl/axil_crossbar_sm_wr.sv(33).
#    Time: 0 ns  Iteration: 0  Instance: /axil_interconnect_tb/axil_interconnect_wrapper_sv_inst/axil_interconnect_inst/axil_crossbar_sm_wr[0]/axil_crossbar_sm_wr_inst File: rtl/axil_interconnect.sv Line: 232
# ** Error: (vsim-3906) Connection type 'reg[1:0]$[0:16]' is incompatible with 'reg[1:0]$[0:15]' for  port (s_axil_bresp):  Array ranges [0:15] & [0:16] have different lengths.
#    Time: 0 ns  Iteration: 0  Instance: /axil_interconnect_tb/axil_interconnect_wrapper_sv_inst/axil_interconnect_inst/axil_crossbar_sm_wr[0]/axil_crossbar_sm_wr_inst File: rtl/axil_interconnect.sv Line: 232
# ** Warning: (vsim-3015) [PCDPC] - Port size (16) does not match connection size (17) for port 's_axil_bvalid'. The port definition is at: rtl/axil_crossbar_sm_wr.sv(37).
#    Time: 0 ns  Iteration: 0  Instance: /axil_interconnect_tb/axil_interconnect_wrapper_sv_inst/axil_interconnect_inst/axil_crossbar_sm_wr[0]/axil_crossbar_sm_wr_inst File: rtl/axil_interconnect.sv Line: 232
# ** Warning: (vsim-3015) [PCDPC] - Port size (16) does not match connection size (17) for port 'grant_wr_trans'. The port definition is at: rtl/axil_crossbar_sm_wr.sv(9).
#    Time: 0 ns  Iteration: 0  Instance: /axil_interconnect_tb/axil_interconnect_wrapper_sv_inst/axil_interconnect_inst/axil_crossbar_sm_wr[1]/axil_crossbar_sm_wr_inst File: rtl/axil_interconnect.sv Line: 232
# ** Warning: (vsim-3015) [PCDPC] - Port size (16) does not match connection size (17) for port 's_axil_awready'. The port definition is at: rtl/axil_crossbar_sm_wr.sv(30).
#    Time: 0 ns  Iteration: 0  Instance: /axil_interconnect_tb/axil_interconnect_wrapper_sv_inst/axil_interconnect_inst/axil_crossbar_sm_wr[1]/axil_crossbar_sm_wr_inst File: rtl/axil_interconnect.sv Line: 232
# ** Warning: (vsim-3015) [PCDPC] - Port size (16) does not match connection size (17) for port 's_axil_wready'. The port definition is at: rtl/axil_crossbar_sm_wr.sv(33).
#    Time: 0 ns  Iteration: 0  Instance: /axil_interconnect_tb/axil_interconnect_wrapper_sv_inst/axil_interconnect_inst/axil_crossbar_sm_wr[1]/axil_crossbar_sm_wr_inst File: rtl/axil_interconnect.sv Line: 232
# ** Error: (vsim-3906) Connection type 'reg[1:0]$[0:16]' is incompatible with 'reg[1:0]$[0:15]' for  port (s_axil_bresp):  Array ranges [0:15] & [0:16] have different lengths.
#    Time: 0 ns  Iteration: 0  Instance: /axil_interconnect_tb/axil_interconnect_wrapper_sv_inst/axil_interconnect_inst/axil_crossbar_sm_wr[1]/axil_crossbar_sm_wr_inst File: rtl/axil_interconnect.sv Line: 232
# ** Warning: (vsim-3015) [PCDPC] - Port size (16) does not match connection size (17) for port 's_axil_bvalid'. The port definition is at: rtl/axil_crossbar_sm_wr.sv(37).
#    Time: 0 ns  Iteration: 0  Instance: /axil_interconnect_tb/axil_interconnect_wrapper_sv_inst/axil_interconnect_inst/axil_crossbar_sm_wr[1]/axil_crossbar_sm_wr_inst File: rtl/axil_interconnect.sv Line: 232
# ** Warning: (vsim-3015) [PCDPC] - Port size (16) does not match connection size (17) for port 'grant_wr_trans'. The port definition is at: rtl/axil_crossbar_sm_wr.sv(9).
#    Time: 0 ns  Iteration: 0  Instance: /axil_interconnect_tb/axil_interconnect_wrapper_sv_inst/axil_interconnect_inst/axil_crossbar_sm_wr[2]/axil_crossbar_sm_wr_inst File: rtl/axil_interconnect.sv Line: 232
# ** Warning: (vsim-3015) [PCDPC] - Port size (16) does not match connection size (17) for port 's_axil_awready'. The port definition is at: rtl/axil_crossbar_sm_wr.sv(30).
#    Time: 0 ns  Iteration: 0  Instance: /axil_interconnect_tb/axil_interconnect_wrapper_sv_inst/axil_interconnect_inst/axil_crossbar_sm_wr[2]/axil_crossbar_sm_wr_inst File: rtl/axil_interconnect.sv Line: 232
# ** Warning: (vsim-3015) [PCDPC] - Port size (16) does not match connection size (17) for port 's_axil_wready'. The port definition is at: rtl/axil_crossbar_sm_wr.sv(33).
#    Time: 0 ns  Iteration: 0  Instance: /axil_interconnect_tb/axil_interconnect_wrapper_sv_inst/axil_interconnect_inst/axil_crossbar_sm_wr[2]/axil_crossbar_sm_wr_inst File: rtl/axil_interconnect.sv Line: 232
# ** Error: (vsim-3906) Connection type 'reg[1:0]$[0:16]' is incompatible with 'reg[1:0]$[0:15]' for  port (s_axil_bresp):  Array ranges [0:15] & [0:16] have different lengths.
#    Time: 0 ns  Iteration: 0  Instance: /axil_interconnect_tb/axil_interconnect_wrapper_sv_inst/axil_interconnect_inst/axil_crossbar_sm_wr[2]/axil_crossbar_sm_wr_inst File: rtl/axil_interconnect.sv Line: 232
# ** Warning: (vsim-3015) [PCDPC] - Port size (16) does not match connection size (17) for port 's_axil_bvalid'. The port definition is at: rtl/axil_crossbar_sm_wr.sv(37).
#    Time: 0 ns  Iteration: 0  Instance: /axil_interconnect_tb/axil_interconnect_wrapper_sv_inst/axil_interconnect_inst/axil_crossbar_sm_wr[2]/axil_crossbar_sm_wr_inst File: rtl/axil_interconnect.sv Line: 232
# ** Warning: (vsim-3015) [PCDPC] - Port size (16) does not match connection size (17) for port 'grant_wr_trans'. The port definition is at: rtl/axil_crossbar_sm_wr.sv(9).
#    Time: 0 ns  Iteration: 0  Instance: /axil_interconnect_tb/axil_interconnect_wrapper_sv_inst/axil_interconnect_inst/axil_crossbar_sm_wr[3]/axil_crossbar_sm_wr_inst File: rtl/axil_interconnect.sv Line: 232
# ** Warning: (vsim-3015) [PCDPC] - Port size (16) does not match connection size (17) for port 's_axil_awready'. The port definition is at: rtl/axil_crossbar_sm_wr.sv(30).
#    Time: 0 ns  Iteration: 0  Instance: /axil_interconnect_tb/axil_interconnect_wrapper_sv_inst/axil_interconnect_inst/axil_crossbar_sm_wr[3]/axil_crossbar_sm_wr_inst File: rtl/axil_interconnect.sv Line: 232
# ** Warning: (vsim-3015) [PCDPC] - Port size (16) does not match connection size (17) for port 's_axil_wready'. The port definition is at: rtl/axil_crossbar_sm_wr.sv(33).
#    Time: 0 ns  Iteration: 0  Instance: /axil_interconnect_tb/axil_interconnect_wrapper_sv_inst/axil_interconnect_inst/axil_crossbar_sm_wr[3]/axil_crossbar_sm_wr_inst File: rtl/axil_interconnect.sv Line: 232
# ** Error: (vsim-3906) Connection type 'reg[1:0]$[0:16]' is incompatible with 'reg[1:0]$[0:15]' for  port (s_axil_bresp):  Array ranges [0:15] & [0:16] have different lengths.
#    Time: 0 ns  Iteration: 0  Instance: /axil_interconnect_tb/axil_interconnect_wrapper_sv_inst/axil_interconnect_inst/axil_crossbar_sm_wr[3]/axil_crossbar_sm_wr_inst File: rtl/axil_interconnect.sv Line: 232
# ** Warning: (vsim-3015) [PCDPC] - Port size (16) does not match connection size (17) for port 's_axil_bvalid'. The port definition is at: rtl/axil_crossbar_sm_wr.sv(37).
#    Time: 0 ns  Iteration: 0  Instance: /axil_interconnect_tb/axil_interconnect_wrapper_sv_inst/axil_interconnect_inst/axil_crossbar_sm_wr[3]/axil_crossbar_sm_wr_inst File: rtl/axil_interconnect.sv Line: 232
# ** Warning: (vsim-3015) [PCDPC] - Port size (16) does not match connection size (17) for port 'grant_wr_trans'. The port definition is at: rtl/axil_crossbar_sm_wr.sv(9).
#    Time: 0 ns  Iteration: 0  Instance: /axil_interconnect_tb/axil_interconnect_wrapper_sv_inst/axil_interconnect_inst/axil_crossbar_sm_wr[4]/axil_crossbar_sm_wr_inst File: rtl/axil_interconnect.sv Line: 232
# ** Warning: (vsim-3015) [PCDPC] - Port size (16) does not match connection size (17) for port 's_axil_awready'. The port definition is at: rtl/axil_crossbar_sm_wr.sv(30).
#    Time: 0 ns  Iteration: 0  Instance: /axil_interconnect_tb/axil_interconnect_wrapper_sv_inst/axil_interconnect_inst/axil_crossbar_sm_wr[4]/axil_crossbar_sm_wr_inst File: rtl/axil_interconnect.sv Line: 232
# ** Warning: (vsim-3015) [PCDPC] - Port size (16) does not match connection size (17) for port 's_axil_wready'. The port definition is at: rtl/axil_crossbar_sm_wr.sv(33).
#    Time: 0 ns  Iteration: 0  Instance: /axil_interconnect_tb/axil_interconnect_wrapper_sv_inst/axil_interconnect_inst/axil_crossbar_sm_wr[4]/axil_crossbar_sm_wr_inst File: rtl/axil_interconnect.sv Line: 232
# ** Error: (vsim-3906) Connection type 'reg[1:0]$[0:16]' is incompatible with 'reg[1:0]$[0:15]' for  port (s_axil_bresp):  Array ranges [0:15] & [0:16] have different lengths.
#    Time: 0 ns  Iteration: 0  Instance: /axil_interconnect_tb/axil_interconnect_wrapper_sv_inst/axil_interconnect_inst/axil_crossbar_sm_wr[4]/axil_crossbar_sm_wr_inst File: rtl/axil_interconnect.sv Line: 232
# ** Warning: (vsim-3015) [PCDPC] - Port size (16) does not match connection size (17) for port 's_axil_bvalid'. The port definition is at: rtl/axil_crossbar_sm_wr.sv(37).
#    Time: 0 ns  Iteration: 0  Instance: /axil_interconnect_tb/axil_interconnect_wrapper_sv_inst/axil_interconnect_inst/axil_crossbar_sm_wr[4]/axil_crossbar_sm_wr_inst File: rtl/axil_interconnect.sv Line: 232
# ** Warning: (vsim-3015) [PCDPC] - Port size (16) does not match connection size (17) for port 'grant_wr_trans'. The port definition is at: rtl/axil_crossbar_sm_wr.sv(9).
#    Time: 0 ns  Iteration: 0  Instance: /axil_interconnect_tb/axil_interconnect_wrapper_sv_inst/axil_interconnect_inst/axil_crossbar_sm_wr[5]/axil_crossbar_sm_wr_inst File: rtl/axil_interconnect.sv Line: 232
# ** Warning: (vsim-3015) [PCDPC] - Port size (16) does not match connection size (17) for port 's_axil_awready'. The port definition is at: rtl/axil_crossbar_sm_wr.sv(30).
#    Time: 0 ns  Iteration: 0  Instance: /axil_interconnect_tb/axil_interconnect_wrapper_sv_inst/axil_interconnect_inst/axil_crossbar_sm_wr[5]/axil_crossbar_sm_wr_inst File: rtl/axil_interconnect.sv Line: 232
# ** Warning: (vsim-3015) [PCDPC] - Port size (16) does not match connection size (17) for port 's_axil_wready'. The port definition is at: rtl/axil_crossbar_sm_wr.sv(33).
#    Time: 0 ns  Iteration: 0  Instance: /axil_interconnect_tb/axil_interconnect_wrapper_sv_inst/axil_interconnect_inst/axil_crossbar_sm_wr[5]/axil_crossbar_sm_wr_inst File: rtl/axil_interconnect.sv Line: 232
# ** Error: (vsim-3906) Connection type 'reg[1:0]$[0:16]' is incompatible with 'reg[1:0]$[0:15]' for  port (s_axil_bresp):  Array ranges [0:15] & [0:16] have different lengths.
#    Time: 0 ns  Iteration: 0  Instance: /axil_interconnect_tb/axil_interconnect_wrapper_sv_inst/axil_interconnect_inst/axil_crossbar_sm_wr[5]/axil_crossbar_sm_wr_inst File: rtl/axil_interconnect.sv Line: 232
# ** Warning: (vsim-3015) [PCDPC] - Port size (16) does not match connection size (17) for port 's_axil_bvalid'. The port definition is at: rtl/axil_crossbar_sm_wr.sv(37).
#    Time: 0 ns  Iteration: 0  Instance: /axil_interconnect_tb/axil_interconnect_wrapper_sv_inst/axil_interconnect_inst/axil_crossbar_sm_wr[5]/axil_crossbar_sm_wr_inst File: rtl/axil_interconnect.sv Line: 232
# ** Warning: (vsim-3015) [PCDPC] - Port size (16) does not match connection size (17) for port 'grant_wr_trans'. The port definition is at: rtl/axil_crossbar_sm_wr.sv(9).
#    Time: 0 ns  Iteration: 0  Instance: /axil_interconnect_tb/axil_interconnect_wrapper_sv_inst/axil_interconnect_inst/axil_crossbar_sm_wr[6]/axil_crossbar_sm_wr_inst File: rtl/axil_interconnect.sv Line: 232
# ** Warning: (vsim-3015) [PCDPC] - Port size (16) does not match connection size (17) for port 's_axil_awready'. The port definition is at: rtl/axil_crossbar_sm_wr.sv(30).
#    Time: 0 ns  Iteration: 0  Instance: /axil_interconnect_tb/axil_interconnect_wrapper_sv_inst/axil_interconnect_inst/axil_crossbar_sm_wr[6]/axil_crossbar_sm_wr_inst File: rtl/axil_interconnect.sv Line: 232
# ** Warning: (vsim-3015) [PCDPC] - Port size (16) does not match connection size (17) for port 's_axil_wready'. The port definition is at: rtl/axil_crossbar_sm_wr.sv(33).
#    Time: 0 ns  Iteration: 0  Instance: /axil_interconnect_tb/axil_interconnect_wrapper_sv_inst/axil_interconnect_inst/axil_crossbar_sm_wr[6]/axil_crossbar_sm_wr_inst File: rtl/axil_interconnect.sv Line: 232
# ** Error: (vsim-3906) Connection type 'reg[1:0]$[0:16]' is incompatible with 'reg[1:0]$[0:15]' for  port (s_axil_bresp):  Array ranges [0:15] & [0:16] have different lengths.
#    Time: 0 ns  Iteration: 0  Instance: /axil_interconnect_tb/axil_interconnect_wrapper_sv_inst/axil_interconnect_inst/axil_crossbar_sm_wr[6]/axil_crossbar_sm_wr_inst File: rtl/axil_interconnect.sv Line: 232
# ** Warning: (vsim-3015) [PCDPC] - Port size (16) does not match connection size (17) for port 's_axil_bvalid'. The port definition is at: rtl/axil_crossbar_sm_wr.sv(37).
#    Time: 0 ns  Iteration: 0  Instance: /axil_interconnect_tb/axil_interconnect_wrapper_sv_inst/axil_interconnect_inst/axil_crossbar_sm_wr[6]/axil_crossbar_sm_wr_inst File: rtl/axil_interconnect.sv Line: 232
# ** Warning: (vsim-3015) [PCDPC] - Port size (16) does not match connection size (17) for port 'grant_wr_trans'. The port definition is at: rtl/axil_crossbar_sm_wr.sv(9).
#    Time: 0 ns  Iteration: 0  Instance: /axil_interconnect_tb/axil_interconnect_wrapper_sv_inst/axil_interconnect_inst/axil_crossbar_sm_wr[7]/axil_crossbar_sm_wr_inst File: rtl/axil_interconnect.sv Line: 232
# ** Warning: (vsim-3015) [PCDPC] - Port size (16) does not match connection size (17) for port 's_axil_awready'. The port definition is at: rtl/axil_crossbar_sm_wr.sv(30).
#    Time: 0 ns  Iteration: 0  Instance: /axil_interconnect_tb/axil_interconnect_wrapper_sv_inst/axil_interconnect_inst/axil_crossbar_sm_wr[7]/axil_crossbar_sm_wr_inst File: rtl/axil_interconnect.sv Line: 232
# ** Warning: (vsim-3015) [PCDPC] - Port size (16) does not match connection size (17) for port 's_axil_wready'. The port definition is at: rtl/axil_crossbar_sm_wr.sv(33).
#    Time: 0 ns  Iteration: 0  Instance: /axil_interconnect_tb/axil_interconnect_wrapper_sv_inst/axil_interconnect_inst/axil_crossbar_sm_wr[7]/axil_crossbar_sm_wr_inst File: rtl/axil_interconnect.sv Line: 232
# ** Error: (vsim-3906) Connection type 'reg[1:0]$[0:16]' is incompatible with 'reg[1:0]$[0:15]' for  port (s_axil_bresp):  Array ranges [0:15] & [0:16] have different lengths.
#    Time: 0 ns  Iteration: 0  Instance: /axil_interconnect_tb/axil_interconnect_wrapper_sv_inst/axil_interconnect_inst/axil_crossbar_sm_wr[7]/axil_crossbar_sm_wr_inst File: rtl/axil_interconnect.sv Line: 232
# ** Warning: (vsim-3015) [PCDPC] - Port size (16) does not match connection size (17) for port 's_axil_bvalid'. The port definition is at: rtl/axil_crossbar_sm_wr.sv(37).
#    Time: 0 ns  Iteration: 0  Instance: /axil_interconnect_tb/axil_interconnect_wrapper_sv_inst/axil_interconnect_inst/axil_crossbar_sm_wr[7]/axil_crossbar_sm_wr_inst File: rtl/axil_interconnect.sv Line: 232
# ** Warning: (vsim-3015) [PCDPC] - Port size (16) does not match connection size (17) for port 'grant_wr_trans'. The port definition is at: rtl/axil_crossbar_sm_wr.sv(9).
#    Time: 0 ns  Iteration: 0  Instance: /axil_interconnect_tb/axil_interconnect_wrapper_sv_inst/axil_interconnect_inst/axil_crossbar_sm_wr[8]/axil_crossbar_sm_wr_inst File: rtl/axil_interconnect.sv Line: 232
# ** Warning: (vsim-3015) [PCDPC] - Port size (16) does not match connection size (17) for port 's_axil_awready'. The port definition is at: rtl/axil_crossbar_sm_wr.sv(30).
#    Time: 0 ns  Iteration: 0  Instance: /axil_interconnect_tb/axil_interconnect_wrapper_sv_inst/axil_interconnect_inst/axil_crossbar_sm_wr[8]/axil_crossbar_sm_wr_inst File: rtl/axil_interconnect.sv Line: 232
# ** Warning: (vsim-3015) [PCDPC] - Port size (16) does not match connection size (17) for port 's_axil_wready'. The port definition is at: rtl/axil_crossbar_sm_wr.sv(33).
#    Time: 0 ns  Iteration: 0  Instance: /axil_interconnect_tb/axil_interconnect_wrapper_sv_inst/axil_interconnect_inst/axil_crossbar_sm_wr[8]/axil_crossbar_sm_wr_inst File: rtl/axil_interconnect.sv Line: 232
# ** Error: (vsim-3906) Connection type 'reg[1:0]$[0:16]' is incompatible with 'reg[1:0]$[0:15]' for  port (s_axil_bresp):  Array ranges [0:15] & [0:16] have different lengths.
#    Time: 0 ns  Iteration: 0  Instance: /axil_interconnect_tb/axil_interconnect_wrapper_sv_inst/axil_interconnect_inst/axil_crossbar_sm_wr[8]/axil_crossbar_sm_wr_inst File: rtl/axil_interconnect.sv Line: 232
# ** Warning: (vsim-3015) [PCDPC] - Port size (16) does not match connection size (17) for port 's_axil_bvalid'. The port definition is at: rtl/axil_crossbar_sm_wr.sv(37).
#    Time: 0 ns  Iteration: 0  Instance: /axil_interconnect_tb/axil_interconnect_wrapper_sv_inst/axil_interconnect_inst/axil_crossbar_sm_wr[8]/axil_crossbar_sm_wr_inst File: rtl/axil_interconnect.sv Line: 232
# ** Warning: (vsim-3015) [PCDPC] - Port size (16) does not match connection size (17) for port 'grant_wr_trans'. The port definition is at: rtl/axil_crossbar_sm_wr.sv(9).
#    Time: 0 ns  Iteration: 0  Instance: /axil_interconnect_tb/axil_interconnect_wrapper_sv_inst/axil_interconnect_inst/axil_crossbar_sm_wr[9]/axil_crossbar_sm_wr_inst File: rtl/axil_interconnect.sv Line: 232
# ** Warning: (vsim-3015) [PCDPC] - Port size (16) does not match connection size (17) for port 's_axil_awready'. The port definition is at: rtl/axil_crossbar_sm_wr.sv(30).
#    Time: 0 ns  Iteration: 0  Instance: /axil_interconnect_tb/axil_interconnect_wrapper_sv_inst/axil_interconnect_inst/axil_crossbar_sm_wr[9]/axil_crossbar_sm_wr_inst File: rtl/axil_interconnect.sv Line: 232
# ** Warning: (vsim-3015) [PCDPC] - Port size (16) does not match connection size (17) for port 's_axil_wready'. The port definition is at: rtl/axil_crossbar_sm_wr.sv(33).
#    Time: 0 ns  Iteration: 0  Instance: /axil_interconnect_tb/axil_interconnect_wrapper_sv_inst/axil_interconnect_inst/axil_crossbar_sm_wr[9]/axil_crossbar_sm_wr_inst File: rtl/axil_interconnect.sv Line: 232
# ** Error: (vsim-3906) Connection type 'reg[1:0]$[0:16]' is incompatible with 'reg[1:0]$[0:15]' for  port (s_axil_bresp):  Array ranges [0:15] & [0:16] have different lengths.
#    Time: 0 ns  Iteration: 0  Instance: /axil_interconnect_tb/axil_interconnect_wrapper_sv_inst/axil_interconnect_inst/axil_crossbar_sm_wr[9]/axil_crossbar_sm_wr_inst File: rtl/axil_interconnect.sv Line: 232
# ** Warning: (vsim-3015) [PCDPC] - Port size (16) does not match connection size (17) for port 's_axil_bvalid'. The port definition is at: rtl/axil_crossbar_sm_wr.sv(37).
#    Time: 0 ns  Iteration: 0  Instance: /axil_interconnect_tb/axil_interconnect_wrapper_sv_inst/axil_interconnect_inst/axil_crossbar_sm_wr[9]/axil_crossbar_sm_wr_inst File: rtl/axil_interconnect.sv Line: 232
# ** Warning: (vsim-3015) [PCDPC] - Port size (16) does not match connection size (17) for port 'grant_wr_trans'. The port definition is at: rtl/axil_crossbar_sm_wr.sv(9).
#    Time: 0 ns  Iteration: 0  Instance: /axil_interconnect_tb/axil_interconnect_wrapper_sv_inst/axil_interconnect_inst/axil_crossbar_sm_wr[10]/axil_crossbar_sm_wr_inst File: rtl/axil_interconnect.sv Line: 232
# ** Warning: (vsim-3015) [PCDPC] - Port size (16) does not match connection size (17) for port 's_axil_awready'. The port definition is at: rtl/axil_crossbar_sm_wr.sv(30).
#    Time: 0 ns  Iteration: 0  Instance: /axil_interconnect_tb/axil_interconnect_wrapper_sv_inst/axil_interconnect_inst/axil_crossbar_sm_wr[10]/axil_crossbar_sm_wr_inst File: rtl/axil_interconnect.sv Line: 232
# ** Warning: (vsim-3015) [PCDPC] - Port size (16) does not match connection size (17) for port 's_axil_wready'. The port definition is at: rtl/axil_crossbar_sm_wr.sv(33).
#    Time: 0 ns  Iteration: 0  Instance: /axil_interconnect_tb/axil_interconnect_wrapper_sv_inst/axil_interconnect_inst/axil_crossbar_sm_wr[10]/axil_crossbar_sm_wr_inst File: rtl/axil_interconnect.sv Line: 232
# ** Error: (vsim-3906) Connection type 'reg[1:0]$[0:16]' is incompatible with 'reg[1:0]$[0:15]' for  port (s_axil_bresp):  Array ranges [0:15] & [0:16] have different lengths.
#    Time: 0 ns  Iteration: 0  Instance: /axil_interconnect_tb/axil_interconnect_wrapper_sv_inst/axil_interconnect_inst/axil_crossbar_sm_wr[10]/axil_crossbar_sm_wr_inst File: rtl/axil_interconnect.sv Line: 232
# ** Warning: (vsim-3015) [PCDPC] - Port size (16) does not match connection size (17) for port 's_axil_bvalid'. The port definition is at: rtl/axil_crossbar_sm_wr.sv(37).
#    Time: 0 ns  Iteration: 0  Instance: /axil_interconnect_tb/axil_interconnect_wrapper_sv_inst/axil_interconnect_inst/axil_crossbar_sm_wr[10]/axil_crossbar_sm_wr_inst File: rtl/axil_interconnect.sv Line: 232
# ** Warning: (vsim-3015) [PCDPC] - Port size (16) does not match connection size (17) for port 'grant_wr_trans'. The port definition is at: rtl/axil_crossbar_sm_wr.sv(9).
#    Time: 0 ns  Iteration: 0  Instance: /axil_interconnect_tb/axil_interconnect_wrapper_sv_inst/axil_interconnect_inst/axil_crossbar_sm_wr[11]/axil_crossbar_sm_wr_inst File: rtl/axil_interconnect.sv Line: 232
# ** Warning: (vsim-3015) [PCDPC] - Port size (16) does not match connection size (17) for port 's_axil_awready'. The port definition is at: rtl/axil_crossbar_sm_wr.sv(30).
#    Time: 0 ns  Iteration: 0  Instance: /axil_interconnect_tb/axil_interconnect_wrapper_sv_inst/axil_interconnect_inst/axil_crossbar_sm_wr[11]/axil_crossbar_sm_wr_inst File: rtl/axil_interconnect.sv Line: 232
# ** Warning: (vsim-3015) [PCDPC] - Port size (16) does not match connection size (17) for port 's_axil_wready'. The port definition is at: rtl/axil_crossbar_sm_wr.sv(33).
#    Time: 0 ns  Iteration: 0  Instance: /axil_interconnect_tb/axil_interconnect_wrapper_sv_inst/axil_interconnect_inst/axil_crossbar_sm_wr[11]/axil_crossbar_sm_wr_inst File: rtl/axil_interconnect.sv Line: 232
# ** Error: (vsim-3906) Connection type 'reg[1:0]$[0:16]' is incompatible with 'reg[1:0]$[0:15]' for  port (s_axil_bresp):  Array ranges [0:15] & [0:16] have different lengths.
#    Time: 0 ns  Iteration: 0  Instance: /axil_interconnect_tb/axil_interconnect_wrapper_sv_inst/axil_interconnect_inst/axil_crossbar_sm_wr[11]/axil_crossbar_sm_wr_inst File: rtl/axil_interconnect.sv Line: 232
# ** Warning: (vsim-3015) [PCDPC] - Port size (16) does not match connection size (17) for port 's_axil_bvalid'. The port definition is at: rtl/axil_crossbar_sm_wr.sv(37).
#    Time: 0 ns  Iteration: 0  Instance: /axil_interconnect_tb/axil_interconnect_wrapper_sv_inst/axil_interconnect_inst/axil_crossbar_sm_wr[11]/axil_crossbar_sm_wr_inst File: rtl/axil_interconnect.sv Line: 232
# ** Warning: (vsim-3015) [PCDPC] - Port size (16) does not match connection size (17) for port 'grant_wr_trans'. The port definition is at: rtl/axil_crossbar_sm_wr.sv(9).
#    Time: 0 ns  Iteration: 0  Instance: /axil_interconnect_tb/axil_interconnect_wrapper_sv_inst/axil_interconnect_inst/axil_crossbar_sm_wr[12]/axil_crossbar_sm_wr_inst File: rtl/axil_interconnect.sv Line: 232
# ** Warning: (vsim-3015) [PCDPC] - Port size (16) does not match connection size (17) for port 's_axil_awready'. The port definition is at: rtl/axil_crossbar_sm_wr.sv(30).
#    Time: 0 ns  Iteration: 0  Instance: /axil_interconnect_tb/axil_interconnect_wrapper_sv_inst/axil_interconnect_inst/axil_crossbar_sm_wr[12]/axil_crossbar_sm_wr_inst File: rtl/axil_interconnect.sv Line: 232
# ** Warning: (vsim-3015) [PCDPC] - Port size (16) does not match connection size (17) for port 's_axil_wready'. The port definition is at: rtl/axil_crossbar_sm_wr.sv(33).
#    Time: 0 ns  Iteration: 0  Instance: /axil_interconnect_tb/axil_interconnect_wrapper_sv_inst/axil_interconnect_inst/axil_crossbar_sm_wr[12]/axil_crossbar_sm_wr_inst File: rtl/axil_interconnect.sv Line: 232
# ** Error: (vsim-3906) Connection type 'reg[1:0]$[0:16]' is incompatible with 'reg[1:0]$[0:15]' for  port (s_axil_bresp):  Array ranges [0:15] & [0:16] have different lengths.
#    Time: 0 ns  Iteration: 0  Instance: /axil_interconnect_tb/axil_interconnect_wrapper_sv_inst/axil_interconnect_inst/axil_crossbar_sm_wr[12]/axil_crossbar_sm_wr_inst File: rtl/axil_interconnect.sv Line: 232
# ** Warning: (vsim-3015) [PCDPC] - Port size (16) does not match connection size (17) for port 's_axil_bvalid'. The port definition is at: rtl/axil_crossbar_sm_wr.sv(37).
#    Time: 0 ns  Iteration: 0  Instance: /axil_interconnect_tb/axil_interconnect_wrapper_sv_inst/axil_interconnect_inst/axil_crossbar_sm_wr[12]/axil_crossbar_sm_wr_inst File: rtl/axil_interconnect.sv Line: 232
# ** Warning: (vsim-3015) [PCDPC] - Port size (16) does not match connection size (17) for port 'grant_wr_trans'. The port definition is at: rtl/axil_crossbar_sm_wr.sv(9).
#    Time: 0 ns  Iteration: 0  Instance: /axil_interconnect_tb/axil_interconnect_wrapper_sv_inst/axil_interconnect_inst/axil_crossbar_sm_wr[13]/axil_crossbar_sm_wr_inst File: rtl/axil_interconnect.sv Line: 232
# ** Warning: (vsim-3015) [PCDPC] - Port size (16) does not match connection size (17) for port 's_axil_awready'. The port definition is at: rtl/axil_crossbar_sm_wr.sv(30).
#    Time: 0 ns  Iteration: 0  Instance: /axil_interconnect_tb/axil_interconnect_wrapper_sv_inst/axil_interconnect_inst/axil_crossbar_sm_wr[13]/axil_crossbar_sm_wr_inst File: rtl/axil_interconnect.sv Line: 232
# ** Warning: (vsim-3015) [PCDPC] - Port size (16) does not match connection size (17) for port 's_axil_wready'. The port definition is at: rtl/axil_crossbar_sm_wr.sv(33).
#    Time: 0 ns  Iteration: 0  Instance: /axil_interconnect_tb/axil_interconnect_wrapper_sv_inst/axil_interconnect_inst/axil_crossbar_sm_wr[13]/axil_crossbar_sm_wr_inst File: rtl/axil_interconnect.sv Line: 232
# ** Error: (vsim-3906) Connection type 'reg[1:0]$[0:16]' is incompatible with 'reg[1:0]$[0:15]' for  port (s_axil_bresp):  Array ranges [0:15] & [0:16] have different lengths.
#    Time: 0 ns  Iteration: 0  Instance: /axil_interconnect_tb/axil_interconnect_wrapper_sv_inst/axil_interconnect_inst/axil_crossbar_sm_wr[13]/axil_crossbar_sm_wr_inst File: rtl/axil_interconnect.sv Line: 232
# ** Warning: (vsim-3015) [PCDPC] - Port size (16) does not match connection size (17) for port 's_axil_bvalid'. The port definition is at: rtl/axil_crossbar_sm_wr.sv(37).
#    Time: 0 ns  Iteration: 0  Instance: /axil_interconnect_tb/axil_interconnect_wrapper_sv_inst/axil_interconnect_inst/axil_crossbar_sm_wr[13]/axil_crossbar_sm_wr_inst File: rtl/axil_interconnect.sv Line: 232
# ** Warning: (vsim-3015) [PCDPC] - Port size (16) does not match connection size (17) for port 'grant_wr_trans'. The port definition is at: rtl/axil_crossbar_sm_wr.sv(9).
#    Time: 0 ns  Iteration: 0  Instance: /axil_interconnect_tb/axil_interconnect_wrapper_sv_inst/axil_interconnect_inst/axil_crossbar_sm_wr[14]/axil_crossbar_sm_wr_inst File: rtl/axil_interconnect.sv Line: 232
# ** Warning: (vsim-3015) [PCDPC] - Port size (16) does not match connection size (17) for port 's_axil_awready'. The port definition is at: rtl/axil_crossbar_sm_wr.sv(30).
#    Time: 0 ns  Iteration: 0  Instance: /axil_interconnect_tb/axil_interconnect_wrapper_sv_inst/axil_interconnect_inst/axil_crossbar_sm_wr[14]/axil_crossbar_sm_wr_inst File: rtl/axil_interconnect.sv Line: 232
# ** Warning: (vsim-3015) [PCDPC] - Port size (16) does not match connection size (17) for port 's_axil_wready'. The port definition is at: rtl/axil_crossbar_sm_wr.sv(33).
#    Time: 0 ns  Iteration: 0  Instance: /axil_interconnect_tb/axil_interconnect_wrapper_sv_inst/axil_interconnect_inst/axil_crossbar_sm_wr[14]/axil_crossbar_sm_wr_inst File: rtl/axil_interconnect.sv Line: 232
# ** Error: (vsim-3906) Connection type 'reg[1:0]$[0:16]' is incompatible with 'reg[1:0]$[0:15]' for  port (s_axil_bresp):  Array ranges [0:15] & [0:16] have different lengths.
#    Time: 0 ns  Iteration: 0  Instance: /axil_interconnect_tb/axil_interconnect_wrapper_sv_inst/axil_interconnect_inst/axil_crossbar_sm_wr[14]/axil_crossbar_sm_wr_inst File: rtl/axil_interconnect.sv Line: 232
# ** Warning: (vsim-3015) [PCDPC] - Port size (16) does not match connection size (17) for port 's_axil_bvalid'. The port definition is at: rtl/axil_crossbar_sm_wr.sv(37).
#    Time: 0 ns  Iteration: 0  Instance: /axil_interconnect_tb/axil_interconnect_wrapper_sv_inst/axil_interconnect_inst/axil_crossbar_sm_wr[14]/axil_crossbar_sm_wr_inst File: rtl/axil_interconnect.sv Line: 232
# ** Warning: (vsim-3015) [PCDPC] - Port size (16) does not match connection size (17) for port 'grant_wr_trans'. The port definition is at: rtl/axil_crossbar_sm_wr.sv(9).
#    Time: 0 ns  Iteration: 0  Instance: /axil_interconnect_tb/axil_interconnect_wrapper_sv_inst/axil_interconnect_inst/axil_crossbar_sm_wr[15]/axil_crossbar_sm_wr_inst File: rtl/axil_interconnect.sv Line: 232
# ** Warning: (vsim-3015) [PCDPC] - Port size (16) does not match connection size (17) for port 's_axil_awready'. The port definition is at: rtl/axil_crossbar_sm_wr.sv(30).
#    Time: 0 ns  Iteration: 0  Instance: /axil_interconnect_tb/axil_interconnect_wrapper_sv_inst/axil_interconnect_inst/axil_crossbar_sm_wr[15]/axil_crossbar_sm_wr_inst File: rtl/axil_interconnect.sv Line: 232
# ** Warning: (vsim-3015) [PCDPC] - Port size (16) does not match connection size (17) for port 's_axil_wready'. The port definition is at: rtl/axil_crossbar_sm_wr.sv(33).
#    Time: 0 ns  Iteration: 0  Instance: /axil_interconnect_tb/axil_interconnect_wrapper_sv_inst/axil_interconnect_inst/axil_crossbar_sm_wr[15]/axil_crossbar_sm_wr_inst File: rtl/axil_interconnect.sv Line: 232
# ** Error: (vsim-3906) Connection type 'reg[1:0]$[0:16]' is incompatible with 'reg[1:0]$[0:15]' for  port (s_axil_bresp):  Array ranges [0:15] & [0:16] have different lengths.
#    Time: 0 ns  Iteration: 0  Instance: /axil_interconnect_tb/axil_interconnect_wrapper_sv_inst/axil_interconnect_inst/axil_crossbar_sm_wr[15]/axil_crossbar_sm_wr_inst File: rtl/axil_interconnect.sv Line: 232
# ** Warning: (vsim-3015) [PCDPC] - Port size (16) does not match connection size (17) for port 's_axil_bvalid'. The port definition is at: rtl/axil_crossbar_sm_wr.sv(37).
#    Time: 0 ns  Iteration: 0  Instance: /axil_interconnect_tb/axil_interconnect_wrapper_sv_inst/axil_interconnect_inst/axil_crossbar_sm_wr[15]/axil_crossbar_sm_wr_inst File: rtl/axil_interconnect.sv Line: 232
# ** Warning: (vsim-3015) [PCDPC] - Port size (16) does not match connection size (17) for port 'grant_wr_trans'. The port definition is at: rtl/axil_crossbar_sm_wr.sv(9).
#    Time: 0 ns  Iteration: 0  Instance: /axil_interconnect_tb/axil_interconnect_wrapper_sv_inst/axil_interconnect_inst/axil_crossbar_sm_wr[16]/axil_crossbar_sm_wr_inst File: rtl/axil_interconnect.sv Line: 232
# ** Warning: (vsim-3015) [PCDPC] - Port size (16) does not match connection size (17) for port 's_axil_awready'. The port definition is at: rtl/axil_crossbar_sm_wr.sv(30).
#    Time: 0 ns  Iteration: 0  Instance: /axil_interconnect_tb/axil_interconnect_wrapper_sv_inst/axil_interconnect_inst/axil_crossbar_sm_wr[16]/axil_crossbar_sm_wr_inst File: rtl/axil_interconnect.sv Line: 232
# ** Warning: (vsim-3015) [PCDPC] - Port size (16) does not match connection size (17) for port 's_axil_wready'. The port definition is at: rtl/axil_crossbar_sm_wr.sv(33).
#    Time: 0 ns  Iteration: 0  Instance: /axil_interconnect_tb/axil_interconnect_wrapper_sv_inst/axil_interconnect_inst/axil_crossbar_sm_wr[16]/axil_crossbar_sm_wr_inst File: rtl/axil_interconnect.sv Line: 232
# ** Error: (vsim-3906) Connection type 'reg[1:0]$[0:16]' is incompatible with 'reg[1:0]$[0:15]' for  port (s_axil_bresp):  Array ranges [0:15] & [0:16] have different lengths.
#    Time: 0 ns  Iteration: 0  Instance: /axil_interconnect_tb/axil_interconnect_wrapper_sv_inst/axil_interconnect_inst/axil_crossbar_sm_wr[16]/axil_crossbar_sm_wr_inst File: rtl/axil_interconnect.sv Line: 232
# ** Warning: (vsim-3015) [PCDPC] - Port size (16) does not match connection size (17) for port 's_axil_bvalid'. The port definition is at: rtl/axil_crossbar_sm_wr.sv(37).
#    Time: 0 ns  Iteration: 0  Instance: /axil_interconnect_tb/axil_interconnect_wrapper_sv_inst/axil_interconnect_inst/axil_crossbar_sm_wr[16]/axil_crossbar_sm_wr_inst File: rtl/axil_interconnect.sv Line: 232
# ** Warning: (vsim-3015) [PCDPC] - Port size (16) does not match connection size (17) for port 'grant_wr_trans'. The port definition is at: rtl/axil_crossbar_sm_wr.sv(9).
#    Time: 0 ns  Iteration: 0  Instance: /axil_interconnect_tb/axil_interconnect_wrapper_sv_inst/axil_interconnect_inst/axil_crossbar_sm_wr[17]/axil_crossbar_sm_wr_inst File: rtl/axil_interconnect.sv Line: 232
# ** Warning: (vsim-3015) [PCDPC] - Port size (16) does not match connection size (17) for port 's_axil_awready'. The port definition is at: rtl/axil_crossbar_sm_wr.sv(30).
#    Time: 0 ns  Iteration: 0  Instance: /axil_interconnect_tb/axil_interconnect_wrapper_sv_inst/axil_interconnect_inst/axil_crossbar_sm_wr[17]/axil_crossbar_sm_wr_inst File: rtl/axil_interconnect.sv Line: 232
# ** Warning: (vsim-3015) [PCDPC] - Port size (16) does not match connection size (17) for port 's_axil_wready'. The port definition is at: rtl/axil_crossbar_sm_wr.sv(33).
#    Time: 0 ns  Iteration: 0  Instance: /axil_interconnect_tb/axil_interconnect_wrapper_sv_inst/axil_interconnect_inst/axil_crossbar_sm_wr[17]/axil_crossbar_sm_wr_inst File: rtl/axil_interconnect.sv Line: 232
# ** Error: (vsim-3906) Connection type 'reg[1:0]$[0:16]' is incompatible with 'reg[1:0]$[0:15]' for  port (s_axil_bresp):  Array ranges [0:15] & [0:16] have different lengths.
#    Time: 0 ns  Iteration: 0  Instance: /axil_interconnect_tb/axil_interconnect_wrapper_sv_inst/axil_interconnect_inst/axil_crossbar_sm_wr[17]/axil_crossbar_sm_wr_inst File: rtl/axil_interconnect.sv Line: 232
# ** Warning: (vsim-3015) [PCDPC] - Port size (16) does not match connection size (17) for port 's_axil_bvalid'. The port definition is at: rtl/axil_crossbar_sm_wr.sv(37).
#    Time: 0 ns  Iteration: 0  Instance: /axil_interconnect_tb/axil_interconnect_wrapper_sv_inst/axil_interconnect_inst/axil_crossbar_sm_wr[17]/axil_crossbar_sm_wr_inst File: rtl/axil_interconnect.sv Line: 232
# ** Warning: (vsim-3015) [PCDPC] - Port size (16) does not match connection size (17) for port 'grant_wr_trans'. The port definition is at: rtl/axil_crossbar_sm_wr.sv(9).
#    Time: 0 ns  Iteration: 0  Instance: /axil_interconnect_tb/axil_interconnect_wrapper_sv_inst/axil_interconnect_inst/axil_crossbar_sm_wr[18]/axil_crossbar_sm_wr_inst File: rtl/axil_interconnect.sv Line: 232
# ** Warning: (vsim-3015) [PCDPC] - Port size (16) does not match connection size (17) for port 's_axil_awready'. The port definition is at: rtl/axil_crossbar_sm_wr.sv(30).
#    Time: 0 ns  Iteration: 0  Instance: /axil_interconnect_tb/axil_interconnect_wrapper_sv_inst/axil_interconnect_inst/axil_crossbar_sm_wr[18]/axil_crossbar_sm_wr_inst File: rtl/axil_interconnect.sv Line: 232
# ** Warning: (vsim-3015) [PCDPC] - Port size (16) does not match connection size (17) for port 's_axil_wready'. The port definition is at: rtl/axil_crossbar_sm_wr.sv(33).
#    Time: 0 ns  Iteration: 0  Instance: /axil_interconnect_tb/axil_interconnect_wrapper_sv_inst/axil_interconnect_inst/axil_crossbar_sm_wr[18]/axil_crossbar_sm_wr_inst File: rtl/axil_interconnect.sv Line: 232
# ** Error: (vsim-3906) Connection type 'reg[1:0]$[0:16]' is incompatible with 'reg[1:0]$[0:15]' for  port (s_axil_bresp):  Array ranges [0:15] & [0:16] have different lengths.
#    Time: 0 ns  Iteration: 0  Instance: /axil_interconnect_tb/axil_interconnect_wrapper_sv_inst/axil_interconnect_inst/axil_crossbar_sm_wr[18]/axil_crossbar_sm_wr_inst File: rtl/axil_interconnect.sv Line: 232
# ** Warning: (vsim-3015) [PCDPC] - Port size (16) does not match connection size (17) for port 's_axil_bvalid'. The port definition is at: rtl/axil_crossbar_sm_wr.sv(37).
#    Time: 0 ns  Iteration: 0  Instance: /axil_interconnect_tb/axil_interconnect_wrapper_sv_inst/axil_interconnect_inst/axil_crossbar_sm_wr[18]/axil_crossbar_sm_wr_inst File: rtl/axil_interconnect.sv Line: 232
# ** Warning: (vsim-3015) [PCDPC] - Port size (16) does not match connection size (17) for port 'grant_wr_trans'. The port definition is at: rtl/axil_crossbar_sm_wr.sv(9).
#    Time: 0 ns  Iteration: 0  Instance: /axil_interconnect_tb/axil_interconnect_wrapper_sv_inst/axil_interconnect_inst/axil_crossbar_sm_wr[19]/axil_crossbar_sm_wr_inst File: rtl/axil_interconnect.sv Line: 232
# ** Warning: (vsim-3015) [PCDPC] - Port size (16) does not match connection size (17) for port 's_axil_awready'. The port definition is at: rtl/axil_crossbar_sm_wr.sv(30).
#    Time: 0 ns  Iteration: 0  Instance: /axil_interconnect_tb/axil_interconnect_wrapper_sv_inst/axil_interconnect_inst/axil_crossbar_sm_wr[19]/axil_crossbar_sm_wr_inst File: rtl/axil_interconnect.sv Line: 232
# ** Warning: (vsim-3015) [PCDPC] - Port size (16) does not match connection size (17) for port 's_axil_wready'. The port definition is at: rtl/axil_crossbar_sm_wr.sv(33).
#    Time: 0 ns  Iteration: 0  Instance: /axil_interconnect_tb/axil_interconnect_wrapper_sv_inst/axil_interconnect_inst/axil_crossbar_sm_wr[19]/axil_crossbar_sm_wr_inst File: rtl/axil_interconnect.sv Line: 232
# ** Error: (vsim-3906) Connection type 'reg[1:0]$[0:16]' is incompatible with 'reg[1:0]$[0:15]' for  port (s_axil_bresp):  Array ranges [0:15] & [0:16] have different lengths.
#    Time: 0 ns  Iteration: 0  Instance: /axil_interconnect_tb/axil_interconnect_wrapper_sv_inst/axil_interconnect_inst/axil_crossbar_sm_wr[19]/axil_crossbar_sm_wr_inst File: rtl/axil_interconnect.sv Line: 232
# ** Warning: (vsim-3015) [PCDPC] - Port size (16) does not match connection size (17) for port 's_axil_bvalid'. The port definition is at: rtl/axil_crossbar_sm_wr.sv(37).
#    Time: 0 ns  Iteration: 0  Instance: /axil_interconnect_tb/axil_interconnect_wrapper_sv_inst/axil_interconnect_inst/axil_crossbar_sm_wr[19]/axil_crossbar_sm_wr_inst File: rtl/axil_interconnect.sv Line: 232
# ** Warning: (vsim-3015) [PCDPC] - Port size (16) does not match connection size (17) for port 'grant_wr_trans'. The port definition is at: rtl/axil_crossbar_sm_wr.sv(9).
#    Time: 0 ns  Iteration: 0  Instance: /axil_interconnect_tb/axil_interconnect_wrapper_sv_inst/axil_interconnect_inst/axil_crossbar_sm_wr[20]/axil_crossbar_sm_wr_inst File: rtl/axil_interconnect.sv Line: 232
# ** Warning: (vsim-3015) [PCDPC] - Port size (16) does not match connection size (17) for port 's_axil_awready'. The port definition is at: rtl/axil_crossbar_sm_wr.sv(30).
#    Time: 0 ns  Iteration: 0  Instance: /axil_interconnect_tb/axil_interconnect_wrapper_sv_inst/axil_interconnect_inst/axil_crossbar_sm_wr[20]/axil_crossbar_sm_wr_inst File: rtl/axil_interconnect.sv Line: 232
# ** Warning: (vsim-3015) [PCDPC] - Port size (16) does not match connection size (17) for port 's_axil_wready'. The port definition is at: rtl/axil_crossbar_sm_wr.sv(33).
#    Time: 0 ns  Iteration: 0  Instance: /axil_interconnect_tb/axil_interconnect_wrapper_sv_inst/axil_interconnect_inst/axil_crossbar_sm_wr[20]/axil_crossbar_sm_wr_inst File: rtl/axil_interconnect.sv Line: 232
# ** Error: (vsim-3906) Connection type 'reg[1:0]$[0:16]' is incompatible with 'reg[1:0]$[0:15]' for  port (s_axil_bresp):  Array ranges [0:15] & [0:16] have different lengths.
#    Time: 0 ns  Iteration: 0  Instance: /axil_interconnect_tb/axil_interconnect_wrapper_sv_inst/axil_interconnect_inst/axil_crossbar_sm_wr[20]/axil_crossbar_sm_wr_inst File: rtl/axil_interconnect.sv Line: 232
# ** Warning: (vsim-3015) [PCDPC] - Port size (16) does not match connection size (17) for port 's_axil_bvalid'. The port definition is at: rtl/axil_crossbar_sm_wr.sv(37).
#    Time: 0 ns  Iteration: 0  Instance: /axil_interconnect_tb/axil_interconnect_wrapper_sv_inst/axil_interconnect_inst/axil_crossbar_sm_wr[20]/axil_crossbar_sm_wr_inst File: rtl/axil_interconnect.sv Line: 232
# ** Warning: (vsim-3015) [PCDPC] - Port size (16) does not match connection size (17) for port 'grant_wr_trans'. The port definition is at: rtl/axil_crossbar_sm_wr.sv(9).
#    Time: 0 ns  Iteration: 0  Instance: /axil_interconnect_tb/axil_interconnect_wrapper_sv_inst/axil_interconnect_inst/axil_crossbar_sm_wr[21]/axil_crossbar_sm_wr_inst File: rtl/axil_interconnect.sv Line: 232
# ** Warning: (vsim-3015) [PCDPC] - Port size (16) does not match connection size (17) for port 's_axil_awready'. The port definition is at: rtl/axil_crossbar_sm_wr.sv(30).
#    Time: 0 ns  Iteration: 0  Instance: /axil_interconnect_tb/axil_interconnect_wrapper_sv_inst/axil_interconnect_inst/axil_crossbar_sm_wr[21]/axil_crossbar_sm_wr_inst File: rtl/axil_interconnect.sv Line: 232
# ** Warning: (vsim-3015) [PCDPC] - Port size (16) does not match connection size (17) for port 's_axil_wready'. The port definition is at: rtl/axil_crossbar_sm_wr.sv(33).
#    Time: 0 ns  Iteration: 0  Instance: /axil_interconnect_tb/axil_interconnect_wrapper_sv_inst/axil_interconnect_inst/axil_crossbar_sm_wr[21]/axil_crossbar_sm_wr_inst File: rtl/axil_interconnect.sv Line: 232
# ** Error: (vsim-3906) Connection type 'reg[1:0]$[0:16]' is incompatible with 'reg[1:0]$[0:15]' for  port (s_axil_bresp):  Array ranges [0:15] & [0:16] have different lengths.
#    Time: 0 ns  Iteration: 0  Instance: /axil_interconnect_tb/axil_interconnect_wrapper_sv_inst/axil_interconnect_inst/axil_crossbar_sm_wr[21]/axil_crossbar_sm_wr_inst File: rtl/axil_interconnect.sv Line: 232
# ** Warning: (vsim-3015) [PCDPC] - Port size (16) does not match connection size (17) for port 's_axil_bvalid'. The port definition is at: rtl/axil_crossbar_sm_wr.sv(37).
#    Time: 0 ns  Iteration: 0  Instance: /axil_interconnect_tb/axil_interconnect_wrapper_sv_inst/axil_interconnect_inst/axil_crossbar_sm_wr[21]/axil_crossbar_sm_wr_inst File: rtl/axil_interconnect.sv Line: 232
# ** Warning: (vsim-3015) [PCDPC] - Port size (16) does not match connection size (17) for port 'grant_wr_trans'. The port definition is at: rtl/axil_crossbar_sm_wr.sv(9).
#    Time: 0 ns  Iteration: 0  Instance: /axil_interconnect_tb/axil_interconnect_wrapper_sv_inst/axil_interconnect_inst/axil_crossbar_sm_wr[22]/axil_crossbar_sm_wr_inst File: rtl/axil_interconnect.sv Line: 232
# ** Warning: (vsim-3015) [PCDPC] - Port size (16) does not match connection size (17) for port 's_axil_awready'. The port definition is at: rtl/axil_crossbar_sm_wr.sv(30).
#    Time: 0 ns  Iteration: 0  Instance: /axil_interconnect_tb/axil_interconnect_wrapper_sv_inst/axil_interconnect_inst/axil_crossbar_sm_wr[22]/axil_crossbar_sm_wr_inst File: rtl/axil_interconnect.sv Line: 232
# ** Warning: (vsim-3015) [PCDPC] - Port size (16) does not match connection size (17) for port 's_axil_wready'. The port definition is at: rtl/axil_crossbar_sm_wr.sv(33).
#    Time: 0 ns  Iteration: 0  Instance: /axil_interconnect_tb/axil_interconnect_wrapper_sv_inst/axil_interconnect_inst/axil_crossbar_sm_wr[22]/axil_crossbar_sm_wr_inst File: rtl/axil_interconnect.sv Line: 232
# ** Error: (vsim-3906) Connection type 'reg[1:0]$[0:16]' is incompatible with 'reg[1:0]$[0:15]' for  port (s_axil_bresp):  Array ranges [0:15] & [0:16] have different lengths.
#    Time: 0 ns  Iteration: 0  Instance: /axil_interconnect_tb/axil_interconnect_wrapper_sv_inst/axil_interconnect_inst/axil_crossbar_sm_wr[22]/axil_crossbar_sm_wr_inst File: rtl/axil_interconnect.sv Line: 232
# ** Warning: (vsim-3015) [PCDPC] - Port size (16) does not match connection size (17) for port 's_axil_bvalid'. The port definition is at: rtl/axil_crossbar_sm_wr.sv(37).
#    Time: 0 ns  Iteration: 0  Instance: /axil_interconnect_tb/axil_interconnect_wrapper_sv_inst/axil_interconnect_inst/axil_crossbar_sm_wr[22]/axil_crossbar_sm_wr_inst File: rtl/axil_interconnect.sv Line: 232
# ** Warning: (vsim-3015) [PCDPC] - Port size (16) does not match connection size (17) for port 'grant_wr_trans'. The port definition is at: rtl/axil_crossbar_sm_wr.sv(9).
#    Time: 0 ns  Iteration: 0  Instance: /axil_interconnect_tb/axil_interconnect_wrapper_sv_inst/axil_interconnect_inst/axil_crossbar_sm_wr[23]/axil_crossbar_sm_wr_inst File: rtl/axil_interconnect.sv Line: 232
# ** Warning: (vsim-3015) [PCDPC] - Port size (16) does not match connection size (17) for port 's_axil_awready'. The port definition is at: rtl/axil_crossbar_sm_wr.sv(30).
#    Time: 0 ns  Iteration: 0  Instance: /axil_interconnect_tb/axil_interconnect_wrapper_sv_inst/axil_interconnect_inst/axil_crossbar_sm_wr[23]/axil_crossbar_sm_wr_inst File: rtl/axil_interconnect.sv Line: 232
# ** Warning: (vsim-3015) [PCDPC] - Port size (16) does not match connection size (17) for port 's_axil_wready'. The port definition is at: rtl/axil_crossbar_sm_wr.sv(33).
#    Time: 0 ns  Iteration: 0  Instance: /axil_interconnect_tb/axil_interconnect_wrapper_sv_inst/axil_interconnect_inst/axil_crossbar_sm_wr[23]/axil_crossbar_sm_wr_inst File: rtl/axil_interconnect.sv Line: 232
# ** Error: (vsim-3906) Connection type 'reg[1:0]$[0:16]' is incompatible with 'reg[1:0]$[0:15]' for  port (s_axil_bresp):  Array ranges [0:15] & [0:16] have different lengths.
#    Time: 0 ns  Iteration: 0  Instance: /axil_interconnect_tb/axil_interconnect_wrapper_sv_inst/axil_interconnect_inst/axil_crossbar_sm_wr[23]/axil_crossbar_sm_wr_inst File: rtl/axil_interconnect.sv Line: 232
# ** Warning: (vsim-3015) [PCDPC] - Port size (16) does not match connection size (17) for port 's_axil_bvalid'. The port definition is at: rtl/axil_crossbar_sm_wr.sv(37).
#    Time: 0 ns  Iteration: 0  Instance: /axil_interconnect_tb/axil_interconnect_wrapper_sv_inst/axil_interconnect_inst/axil_crossbar_sm_wr[23]/axil_crossbar_sm_wr_inst File: rtl/axil_interconnect.sv Line: 232
# ** Warning: (vsim-3015) [PCDPC] - Port size (16) does not match connection size (17) for port 'grant_wr_trans'. The port definition is at: rtl/axil_crossbar_sm_wr.sv(9).
#    Time: 0 ns  Iteration: 0  Instance: /axil_interconnect_tb/axil_interconnect_wrapper_sv_inst/axil_interconnect_inst/axil_crossbar_sm_wr[24]/axil_crossbar_sm_wr_inst File: rtl/axil_interconnect.sv Line: 232
# ** Warning: (vsim-3015) [PCDPC] - Port size (16) does not match connection size (17) for port 's_axil_awready'. The port definition is at: rtl/axil_crossbar_sm_wr.sv(30).
#    Time: 0 ns  Iteration: 0  Instance: /axil_interconnect_tb/axil_interconnect_wrapper_sv_inst/axil_interconnect_inst/axil_crossbar_sm_wr[24]/axil_crossbar_sm_wr_inst File: rtl/axil_interconnect.sv Line: 232
# ** Warning: (vsim-3015) [PCDPC] - Port size (16) does not match connection size (17) for port 's_axil_wready'. The port definition is at: rtl/axil_crossbar_sm_wr.sv(33).
#    Time: 0 ns  Iteration: 0  Instance: /axil_interconnect_tb/axil_interconnect_wrapper_sv_inst/axil_interconnect_inst/axil_crossbar_sm_wr[24]/axil_crossbar_sm_wr_inst File: rtl/axil_interconnect.sv Line: 232
# ** Error: (vsim-3906) Connection type 'reg[1:0]$[0:16]' is incompatible with 'reg[1:0]$[0:15]' for  port (s_axil_bresp):  Array ranges [0:15] & [0:16] have different lengths.
#    Time: 0 ns  Iteration: 0  Instance: /axil_interconnect_tb/axil_interconnect_wrapper_sv_inst/axil_interconnect_inst/axil_crossbar_sm_wr[24]/axil_crossbar_sm_wr_inst File: rtl/axil_interconnect.sv Line: 232
# ** Warning: (vsim-3015) [PCDPC] - Port size (16) does not match connection size (17) for port 's_axil_bvalid'. The port definition is at: rtl/axil_crossbar_sm_wr.sv(37).
#    Time: 0 ns  Iteration: 0  Instance: /axil_interconnect_tb/axil_interconnect_wrapper_sv_inst/axil_interconnect_inst/axil_crossbar_sm_wr[24]/axil_crossbar_sm_wr_inst File: rtl/axil_interconnect.sv Line: 232
# ** Warning: (vsim-3015) [PCDPC] - Port size (16) does not match connection size (17) for port 'grant_wr_trans'. The port definition is at: rtl/axil_crossbar_sm_wr.sv(9).
#    Time: 0 ns  Iteration: 0  Instance: /axil_interconnect_tb/axil_interconnect_wrapper_sv_inst/axil_interconnect_inst/axil_crossbar_sm_wr[25]/axil_crossbar_sm_wr_inst File: rtl/axil_interconnect.sv Line: 232
# ** Warning: (vsim-3015) [PCDPC] - Port size (16) does not match connection size (17) for port 's_axil_awready'. The port definition is at: rtl/axil_crossbar_sm_wr.sv(30).
#    Time: 0 ns  Iteration: 0  Instance: /axil_interconnect_tb/axil_interconnect_wrapper_sv_inst/axil_interconnect_inst/axil_crossbar_sm_wr[25]/axil_crossbar_sm_wr_inst File: rtl/axil_interconnect.sv Line: 232
# ** Warning: (vsim-3015) [PCDPC] - Port size (16) does not match connection size (17) for port 's_axil_wready'. The port definition is at: rtl/axil_crossbar_sm_wr.sv(33).
#    Time: 0 ns  Iteration: 0  Instance: /axil_interconnect_tb/axil_interconnect_wrapper_sv_inst/axil_interconnect_inst/axil_crossbar_sm_wr[25]/axil_crossbar_sm_wr_inst File: rtl/axil_interconnect.sv Line: 232
# ** Error: (vsim-3906) Connection type 'reg[1:0]$[0:16]' is incompatible with 'reg[1:0]$[0:15]' for  port (s_axil_bresp):  Array ranges [0:15] & [0:16] have different lengths.
#    Time: 0 ns  Iteration: 0  Instance: /axil_interconnect_tb/axil_interconnect_wrapper_sv_inst/axil_interconnect_inst/axil_crossbar_sm_wr[25]/axil_crossbar_sm_wr_inst File: rtl/axil_interconnect.sv Line: 232
# ** Warning: (vsim-3015) [PCDPC] - Port size (16) does not match connection size (17) for port 's_axil_bvalid'. The port definition is at: rtl/axil_crossbar_sm_wr.sv(37).
#    Time: 0 ns  Iteration: 0  Instance: /axil_interconnect_tb/axil_interconnect_wrapper_sv_inst/axil_interconnect_inst/axil_crossbar_sm_wr[25]/axil_crossbar_sm_wr_inst File: rtl/axil_interconnect.sv Line: 232
# ** Warning: (vsim-3015) [PCDPC] - Port size (16) does not match connection size (17) for port 'grant_wr_trans'. The port definition is at: rtl/axil_crossbar_sm_wr.sv(9).
#    Time: 0 ns  Iteration: 0  Instance: /axil_interconnect_tb/axil_interconnect_wrapper_sv_inst/axil_interconnect_inst/axil_crossbar_sm_wr[26]/axil_crossbar_sm_wr_inst File: rtl/axil_interconnect.sv Line: 232
# ** Warning: (vsim-3015) [PCDPC] - Port size (16) does not match connection size (17) for port 's_axil_awready'. The port definition is at: rtl/axil_crossbar_sm_wr.sv(30).
#    Time: 0 ns  Iteration: 0  Instance: /axil_interconnect_tb/axil_interconnect_wrapper_sv_inst/axil_interconnect_inst/axil_crossbar_sm_wr[26]/axil_crossbar_sm_wr_inst File: rtl/axil_interconnect.sv Line: 232
# ** Warning: (vsim-3015) [PCDPC] - Port size (16) does not match connection size (17) for port 's_axil_wready'. The port definition is at: rtl/axil_crossbar_sm_wr.sv(33).
#    Time: 0 ns  Iteration: 0  Instance: /axil_interconnect_tb/axil_interconnect_wrapper_sv_inst/axil_interconnect_inst/axil_crossbar_sm_wr[26]/axil_crossbar_sm_wr_inst File: rtl/axil_interconnect.sv Line: 232
# ** Error: (vsim-3906) Connection type 'reg[1:0]$[0:16]' is incompatible with 'reg[1:0]$[0:15]' for  port (s_axil_bresp):  Array ranges [0:15] & [0:16] have different lengths.
#    Time: 0 ns  Iteration: 0  Instance: /axil_interconnect_tb/axil_interconnect_wrapper_sv_inst/axil_interconnect_inst/axil_crossbar_sm_wr[26]/axil_crossbar_sm_wr_inst File: rtl/axil_interconnect.sv Line: 232
# ** Warning: (vsim-3015) [PCDPC] - Port size (16) does not match connection size (17) for port 's_axil_bvalid'. The port definition is at: rtl/axil_crossbar_sm_wr.sv(37).
#    Time: 0 ns  Iteration: 0  Instance: /axil_interconnect_tb/axil_interconnect_wrapper_sv_inst/axil_interconnect_inst/axil_crossbar_sm_wr[26]/axil_crossbar_sm_wr_inst File: rtl/axil_interconnect.sv Line: 232
# ** Warning: (vsim-3015) [PCDPC] - Port size (16) does not match connection size (17) for port 'grant_wr_trans'. The port definition is at: rtl/axil_crossbar_sm_wr.sv(9).
#    Time: 0 ns  Iteration: 0  Instance: /axil_interconnect_tb/axil_interconnect_wrapper_sv_inst/axil_interconnect_inst/axil_crossbar_sm_wr[27]/axil_crossbar_sm_wr_inst File: rtl/axil_interconnect.sv Line: 232
# ** Warning: (vsim-3015) [PCDPC] - Port size (16) does not match connection size (17) for port 's_axil_awready'. The port definition is at: rtl/axil_crossbar_sm_wr.sv(30).
#    Time: 0 ns  Iteration: 0  Instance: /axil_interconnect_tb/axil_interconnect_wrapper_sv_inst/axil_interconnect_inst/axil_crossbar_sm_wr[27]/axil_crossbar_sm_wr_inst File: rtl/axil_interconnect.sv Line: 232
# ** Warning: (vsim-3015) [PCDPC] - Port size (16) does not match connection size (17) for port 's_axil_wready'. The port definition is at: rtl/axil_crossbar_sm_wr.sv(33).
#    Time: 0 ns  Iteration: 0  Instance: /axil_interconnect_tb/axil_interconnect_wrapper_sv_inst/axil_interconnect_inst/axil_crossbar_sm_wr[27]/axil_crossbar_sm_wr_inst File: rtl/axil_interconnect.sv Line: 232
# ** Error: (vsim-3906) Connection type 'reg[1:0]$[0:16]' is incompatible with 'reg[1:0]$[0:15]' for  port (s_axil_bresp):  Array ranges [0:15] & [0:16] have different lengths.
#    Time: 0 ns  Iteration: 0  Instance: /axil_interconnect_tb/axil_interconnect_wrapper_sv_inst/axil_interconnect_inst/axil_crossbar_sm_wr[27]/axil_crossbar_sm_wr_inst File: rtl/axil_interconnect.sv Line: 232
# ** Warning: (vsim-3015) [PCDPC] - Port size (16) does not match connection size (17) for port 's_axil_bvalid'. The port definition is at: rtl/axil_crossbar_sm_wr.sv(37).
#    Time: 0 ns  Iteration: 0  Instance: /axil_interconnect_tb/axil_interconnect_wrapper_sv_inst/axil_interconnect_inst/axil_crossbar_sm_wr[27]/axil_crossbar_sm_wr_inst File: rtl/axil_interconnect.sv Line: 232
# ** Warning: (vsim-3015) [PCDPC] - Port size (16) does not match connection size (17) for port 'grant_wr_trans'. The port definition is at: rtl/axil_crossbar_sm_wr.sv(9).
#    Time: 0 ns  Iteration: 0  Instance: /axil_interconnect_tb/axil_interconnect_wrapper_sv_inst/axil_interconnect_inst/axil_crossbar_sm_wr[28]/axil_crossbar_sm_wr_inst File: rtl/axil_interconnect.sv Line: 232
# ** Warning: (vsim-3015) [PCDPC] - Port size (16) does not match connection size (17) for port 's_axil_awready'. The port definition is at: rtl/axil_crossbar_sm_wr.sv(30).
#    Time: 0 ns  Iteration: 0  Instance: /axil_interconnect_tb/axil_interconnect_wrapper_sv_inst/axil_interconnect_inst/axil_crossbar_sm_wr[28]/axil_crossbar_sm_wr_inst File: rtl/axil_interconnect.sv Line: 232
# ** Warning: (vsim-3015) [PCDPC] - Port size (16) does not match connection size (17) for port 's_axil_wready'. The port definition is at: rtl/axil_crossbar_sm_wr.sv(33).
#    Time: 0 ns  Iteration: 0  Instance: /axil_interconnect_tb/axil_interconnect_wrapper_sv_inst/axil_interconnect_inst/axil_crossbar_sm_wr[28]/axil_crossbar_sm_wr_inst File: rtl/axil_interconnect.sv Line: 232
# ** Error: (vsim-3906) Connection type 'reg[1:0]$[0:16]' is incompatible with 'reg[1:0]$[0:15]' for  port (s_axil_bresp):  Array ranges [0:15] & [0:16] have different lengths.
#    Time: 0 ns  Iteration: 0  Instance: /axil_interconnect_tb/axil_interconnect_wrapper_sv_inst/axil_interconnect_inst/axil_crossbar_sm_wr[28]/axil_crossbar_sm_wr_inst File: rtl/axil_interconnect.sv Line: 232
# ** Warning: (vsim-3015) [PCDPC] - Port size (16) does not match connection size (17) for port 's_axil_bvalid'. The port definition is at: rtl/axil_crossbar_sm_wr.sv(37).
#    Time: 0 ns  Iteration: 0  Instance: /axil_interconnect_tb/axil_interconnect_wrapper_sv_inst/axil_interconnect_inst/axil_crossbar_sm_wr[28]/axil_crossbar_sm_wr_inst File: rtl/axil_interconnect.sv Line: 232
# ** Warning: (vsim-3015) [PCDPC] - Port size (16) does not match connection size (17) for port 'grant_wr_trans'. The port definition is at: rtl/axil_crossbar_sm_wr.sv(9).
#    Time: 0 ns  Iteration: 0  Instance: /axil_interconnect_tb/axil_interconnect_wrapper_sv_inst/axil_interconnect_inst/axil_crossbar_sm_wr[29]/axil_crossbar_sm_wr_inst File: rtl/axil_interconnect.sv Line: 232
# ** Warning: (vsim-3015) [PCDPC] - Port size (16) does not match connection size (17) for port 's_axil_awready'. The port definition is at: rtl/axil_crossbar_sm_wr.sv(30).
#    Time: 0 ns  Iteration: 0  Instance: /axil_interconnect_tb/axil_interconnect_wrapper_sv_inst/axil_interconnect_inst/axil_crossbar_sm_wr[29]/axil_crossbar_sm_wr_inst File: rtl/axil_interconnect.sv Line: 232
# ** Warning: (vsim-3015) [PCDPC] - Port size (16) does not match connection size (17) for port 's_axil_wready'. The port definition is at: rtl/axil_crossbar_sm_wr.sv(33).
#    Time: 0 ns  Iteration: 0  Instance: /axil_interconnect_tb/axil_interconnect_wrapper_sv_inst/axil_interconnect_inst/axil_crossbar_sm_wr[29]/axil_crossbar_sm_wr_inst File: rtl/axil_interconnect.sv Line: 232
# ** Error: (vsim-3906) Connection type 'reg[1:0]$[0:16]' is incompatible with 'reg[1:0]$[0:15]' for  port (s_axil_bresp):  Array ranges [0:15] & [0:16] have different lengths.
#    Time: 0 ns  Iteration: 0  Instance: /axil_interconnect_tb/axil_interconnect_wrapper_sv_inst/axil_interconnect_inst/axil_crossbar_sm_wr[29]/axil_crossbar_sm_wr_inst File: rtl/axil_interconnect.sv Line: 232
# ** Warning: (vsim-3015) [PCDPC] - Port size (16) does not match connection size (17) for port 's_axil_bvalid'. The port definition is at: rtl/axil_crossbar_sm_wr.sv(37).
#    Time: 0 ns  Iteration: 0  Instance: /axil_interconnect_tb/axil_interconnect_wrapper_sv_inst/axil_interconnect_inst/axil_crossbar_sm_wr[29]/axil_crossbar_sm_wr_inst File: rtl/axil_interconnect.sv Line: 232
# ** Warning: (vsim-3015) [PCDPC] - Port size (16) does not match connection size (17) for port 'grant_wr_trans'. The port definition is at: rtl/axil_crossbar_sm_wr.sv(9).
#    Time: 0 ns  Iteration: 0  Instance: /axil_interconnect_tb/axil_interconnect_wrapper_sv_inst/axil_interconnect_inst/axil_crossbar_sm_wr[30]/axil_crossbar_sm_wr_inst File: rtl/axil_interconnect.sv Line: 232
# ** Warning: (vsim-3015) [PCDPC] - Port size (16) does not match connection size (17) for port 's_axil_awready'. The port definition is at: rtl/axil_crossbar_sm_wr.sv(30).
#    Time: 0 ns  Iteration: 0  Instance: /axil_interconnect_tb/axil_interconnect_wrapper_sv_inst/axil_interconnect_inst/axil_crossbar_sm_wr[30]/axil_crossbar_sm_wr_inst File: rtl/axil_interconnect.sv Line: 232
# ** Warning: (vsim-3015) [PCDPC] - Port size (16) does not match connection size (17) for port 's_axil_wready'. The port definition is at: rtl/axil_crossbar_sm_wr.sv(33).
#    Time: 0 ns  Iteration: 0  Instance: /axil_interconnect_tb/axil_interconnect_wrapper_sv_inst/axil_interconnect_inst/axil_crossbar_sm_wr[30]/axil_crossbar_sm_wr_inst File: rtl/axil_interconnect.sv Line: 232
# ** Error: (vsim-3906) Connection type 'reg[1:0]$[0:16]' is incompatible with 'reg[1:0]$[0:15]' for  port (s_axil_bresp):  Array ranges [0:15] & [0:16] have different lengths.
#    Time: 0 ns  Iteration: 0  Instance: /axil_interconnect_tb/axil_interconnect_wrapper_sv_inst/axil_interconnect_inst/axil_crossbar_sm_wr[30]/axil_crossbar_sm_wr_inst File: rtl/axil_interconnect.sv Line: 232
# ** Warning: (vsim-3015) [PCDPC] - Port size (16) does not match connection size (17) for port 's_axil_bvalid'. The port definition is at: rtl/axil_crossbar_sm_wr.sv(37).
#    Time: 0 ns  Iteration: 0  Instance: /axil_interconnect_tb/axil_interconnect_wrapper_sv_inst/axil_interconnect_inst/axil_crossbar_sm_wr[30]/axil_crossbar_sm_wr_inst File: rtl/axil_interconnect.sv Line: 232
# ** Warning: (vsim-3015) [PCDPC] - Port size (16) does not match connection size (17) for port 'grant_wr_trans'. The port definition is at: rtl/axil_crossbar_sm_wr.sv(9).
#    Time: 0 ns  Iteration: 0  Instance: /axil_interconnect_tb/axil_interconnect_wrapper_sv_inst/axil_interconnect_inst/axil_crossbar_sm_wr[31]/axil_crossbar_sm_wr_inst File: rtl/axil_interconnect.sv Line: 232
# ** Warning: (vsim-3015) [PCDPC] - Port size (16) does not match connection size (17) for port 's_axil_awready'. The port definition is at: rtl/axil_crossbar_sm_wr.sv(30).
#    Time: 0 ns  Iteration: 0  Instance: /axil_interconnect_tb/axil_interconnect_wrapper_sv_inst/axil_interconnect_inst/axil_crossbar_sm_wr[31]/axil_crossbar_sm_wr_inst File: rtl/axil_interconnect.sv Line: 232
# ** Warning: (vsim-3015) [PCDPC] - Port size (16) does not match connection size (17) for port 's_axil_wready'. The port definition is at: rtl/axil_crossbar_sm_wr.sv(33).
#    Time: 0 ns  Iteration: 0  Instance: /axil_interconnect_tb/axil_interconnect_wrapper_sv_inst/axil_interconnect_inst/axil_crossbar_sm_wr[31]/axil_crossbar_sm_wr_inst File: rtl/axil_interconnect.sv Line: 232
# ** Error: (vsim-3906) Connection type 'reg[1:0]$[0:16]' is incompatible with 'reg[1:0]$[0:15]' for  port (s_axil_bresp):  Array ranges [0:15] & [0:16] have different lengths.
#    Time: 0 ns  Iteration: 0  Instance: /axil_interconnect_tb/axil_interconnect_wrapper_sv_inst/axil_interconnect_inst/axil_crossbar_sm_wr[31]/axil_crossbar_sm_wr_inst File: rtl/axil_interconnect.sv Line: 232
# ** Warning: (vsim-3015) [PCDPC] - Port size (16) does not match connection size (17) for port 's_axil_bvalid'. The port definition is at: rtl/axil_crossbar_sm_wr.sv(37).
#    Time: 0 ns  Iteration: 0  Instance: /axil_interconnect_tb/axil_interconnect_wrapper_sv_inst/axil_interconnect_inst/axil_crossbar_sm_wr[31]/axil_crossbar_sm_wr_inst File: rtl/axil_interconnect.sv Line: 232
# ** Warning: (vsim-3015) [PCDPC] - Port size (16) does not match connection size (17) for port 'slv_valid'. The port definition is at: rtl/axil_decoder_addr_rd.sv(14).
#    Time: 0 ns  Iteration: 0  Instance: /axil_interconnect_tb/axil_interconnect_wrapper_sv_inst/axil_interconnect_inst/axil_decoder_addr_rd[0]/axil_decoder_addr_rd_inst File: rtl/axil_interconnect.sv Line: 271
# ** Warning: (vsim-3015) [PCDPC] - Port size (16) does not match connection size (17) for port 'slv_valid'. The port definition is at: rtl/axil_decoder_addr_rd.sv(14).
#    Time: 0 ns  Iteration: 0  Instance: /axil_interconnect_tb/axil_interconnect_wrapper_sv_inst/axil_interconnect_inst/axil_decoder_addr_rd[1]/axil_decoder_addr_rd_inst File: rtl/axil_interconnect.sv Line: 271
# ** Warning: (vsim-3015) [PCDPC] - Port size (16) does not match connection size (17) for port 'slv_valid'. The port definition is at: rtl/axil_decoder_addr_rd.sv(14).
#    Time: 0 ns  Iteration: 0  Instance: /axil_interconnect_tb/axil_interconnect_wrapper_sv_inst/axil_interconnect_inst/axil_decoder_addr_rd[2]/axil_decoder_addr_rd_inst File: rtl/axil_interconnect.sv Line: 271
# ** Warning: (vsim-3015) [PCDPC] - Port size (16) does not match connection size (17) for port 'slv_valid'. The port definition is at: rtl/axil_decoder_addr_rd.sv(14).
#    Time: 0 ns  Iteration: 0  Instance: /axil_interconnect_tb/axil_interconnect_wrapper_sv_inst/axil_interconnect_inst/axil_decoder_addr_rd[3]/axil_decoder_addr_rd_inst File: rtl/axil_interconnect.sv Line: 271
# ** Warning: (vsim-3015) [PCDPC] - Port size (16) does not match connection size (17) for port 'slv_valid'. The port definition is at: rtl/axil_decoder_addr_rd.sv(14).
#    Time: 0 ns  Iteration: 0  Instance: /axil_interconnect_tb/axil_interconnect_wrapper_sv_inst/axil_interconnect_inst/axil_decoder_addr_rd[4]/axil_decoder_addr_rd_inst File: rtl/axil_interconnect.sv Line: 271
# ** Warning: (vsim-3015) [PCDPC] - Port size (16) does not match connection size (17) for port 'slv_valid'. The port definition is at: rtl/axil_decoder_addr_rd.sv(14).
#    Time: 0 ns  Iteration: 0  Instance: /axil_interconnect_tb/axil_interconnect_wrapper_sv_inst/axil_interconnect_inst/axil_decoder_addr_rd[5]/axil_decoder_addr_rd_inst File: rtl/axil_interconnect.sv Line: 271
# ** Warning: (vsim-3015) [PCDPC] - Port size (16) does not match connection size (17) for port 'slv_valid'. The port definition is at: rtl/axil_decoder_addr_rd.sv(14).
#    Time: 0 ns  Iteration: 0  Instance: /axil_interconnect_tb/axil_interconnect_wrapper_sv_inst/axil_interconnect_inst/axil_decoder_addr_rd[6]/axil_decoder_addr_rd_inst File: rtl/axil_interconnect.sv Line: 271
# ** Warning: (vsim-3015) [PCDPC] - Port size (16) does not match connection size (17) for port 'slv_valid'. The port definition is at: rtl/axil_decoder_addr_rd.sv(14).
#    Time: 0 ns  Iteration: 0  Instance: /axil_interconnect_tb/axil_interconnect_wrapper_sv_inst/axil_interconnect_inst/axil_decoder_addr_rd[7]/axil_decoder_addr_rd_inst File: rtl/axil_interconnect.sv Line: 271
# ** Warning: (vsim-3015) [PCDPC] - Port size (16) does not match connection size (17) for port 'slv_valid'. The port definition is at: rtl/axil_decoder_addr_rd.sv(14).
#    Time: 0 ns  Iteration: 0  Instance: /axil_interconnect_tb/axil_interconnect_wrapper_sv_inst/axil_interconnect_inst/axil_decoder_addr_rd[8]/axil_decoder_addr_rd_inst File: rtl/axil_interconnect.sv Line: 271
# ** Warning: (vsim-3015) [PCDPC] - Port size (16) does not match connection size (17) for port 'slv_valid'. The port definition is at: rtl/axil_decoder_addr_rd.sv(14).
#    Time: 0 ns  Iteration: 0  Instance: /axil_interconnect_tb/axil_interconnect_wrapper_sv_inst/axil_interconnect_inst/axil_decoder_addr_rd[9]/axil_decoder_addr_rd_inst File: rtl/axil_interconnect.sv Line: 271
# ** Warning: (vsim-3015) [PCDPC] - Port size (16) does not match connection size (17) for port 'slv_valid'. The port definition is at: rtl/axil_decoder_addr_rd.sv(14).
#    Time: 0 ns  Iteration: 0  Instance: /axil_interconnect_tb/axil_interconnect_wrapper_sv_inst/axil_interconnect_inst/axil_decoder_addr_rd[10]/axil_decoder_addr_rd_inst File: rtl/axil_interconnect.sv Line: 271
# ** Warning: (vsim-3015) [PCDPC] - Port size (16) does not match connection size (17) for port 'slv_valid'. The port definition is at: rtl/axil_decoder_addr_rd.sv(14).
#    Time: 0 ns  Iteration: 0  Instance: /axil_interconnect_tb/axil_interconnect_wrapper_sv_inst/axil_interconnect_inst/axil_decoder_addr_rd[11]/axil_decoder_addr_rd_inst File: rtl/axil_interconnect.sv Line: 271
# ** Warning: (vsim-3015) [PCDPC] - Port size (16) does not match connection size (17) for port 'slv_valid'. The port definition is at: rtl/axil_decoder_addr_rd.sv(14).
