# //  Questa Intel Starter FPGA Edition-64
# //  Version 2021.2 linux_x86_64 Apr 14 2021
# //
# //  Copyright 1991-2021 Mentor Graphics Corporation
# //  All Rights Reserved.
# //
# //  QuestaSim and its associated documentation contain trade
# //  secrets and commercial or financial information that are the property of
# //  Mentor Graphics Corporation and are privileged, confidential,
# //  and exempt from disclosure under the Freedom of Information Act,
# //  5 U.S.C. Section 552. Furthermore, this information
# //  is prohibited from disclosure under the Trade Secrets Act,
# //  18 U.S.C. Section 1905.
# //
# do tb/vsim/vsim.do
# 
# Create the work library
# vlib work
# 
# Compile the packages
# vlog -sv tb/pkg_tb.sv
# Questa Intel Starter FPGA Edition-64 vlog 2021.2 Compiler 2021.04 Apr 14 2021
# Start time: 04:39:48 on Jul 28,2024
# vlog -reportprogress 300 -sv tb/pkg_tb.sv 
# -- Compiling package pkg_tb
# 
# Top level modules:
# 	--none--
# End time: 04:39:48 on Jul 28,2024, Elapsed time: 0:00:00
# Errors: 0, Warnings: 0
# 
# Compile the design and testbench
# vlog -sv rtl/axil_decoder_addr_wr.sv
# Questa Intel Starter FPGA Edition-64 vlog 2021.2 Compiler 2021.04 Apr 14 2021
# Start time: 04:39:48 on Jul 28,2024
# vlog -reportprogress 300 -sv rtl/axil_decoder_addr_wr.sv 
# -- Compiling module axil_decoder_addr_wr
# 
# Top level modules:
# 	axil_decoder_addr_wr
# End time: 04:39:48 on Jul 28,2024, Elapsed time: 0:00:00
# Errors: 0, Warnings: 0
# vlog -sv rtl/axil_mux_wr.sv
# Questa Intel Starter FPGA Edition-64 vlog 2021.2 Compiler 2021.04 Apr 14 2021
# Start time: 04:39:48 on Jul 28,2024
# vlog -reportprogress 300 -sv rtl/axil_mux_wr.sv 
# -- Compiling module SystemVerilog2
# 
# Top level modules:
# 	SystemVerilog2
# End time: 04:39:48 on Jul 28,2024, Elapsed time: 0:00:00
# Errors: 0, Warnings: 0
# vlog -sv rtl/axil_response_addr_invalid_wr.sv
# Questa Intel Starter FPGA Edition-64 vlog 2021.2 Compiler 2021.04 Apr 14 2021
# Start time: 04:39:48 on Jul 28,2024
# vlog -reportprogress 300 -sv rtl/axil_response_addr_invalid_wr.sv 
# -- Compiling module axil_response_addr_invalid_wr
# 
# Top level modules:
# 	axil_response_addr_invalid_wr
# End time: 04:39:48 on Jul 28,2024, Elapsed time: 0:00:00
# Errors: 0, Warnings: 0
# vlog -sv rtl/axil_arbiter_priority_wr.sv
# Questa Intel Starter FPGA Edition-64 vlog 2021.2 Compiler 2021.04 Apr 14 2021
# Start time: 04:39:48 on Jul 28,2024
# vlog -reportprogress 300 -sv rtl/axil_arbiter_priority_wr.sv 
# -- Compiling module axil_arbiter_priority_wr
# 
# Top level modules:
# 	axil_arbiter_priority_wr
# End time: 04:39:48 on Jul 28,2024, Elapsed time: 0:00:00
# Errors: 0, Warnings: 0
# vlog -sv rtl/axil_crossbar_ms_wr.sv
# Questa Intel Starter FPGA Edition-64 vlog 2021.2 Compiler 2021.04 Apr 14 2021
# Start time: 04:39:48 on Jul 28,2024
# vlog -reportprogress 300 -sv rtl/axil_crossbar_ms_wr.sv 
# -- Compiling module axil_crossbar_ms_wr
# ** Warning: rtl/axil_crossbar_ms_wr.sv(15): (vlog-13314) Defaulting port 'm_axil_awaddr' kind to 'var' rather than 'wire' due to default compile option setting of -svinputport=relaxed.
# ** Warning: rtl/axil_crossbar_ms_wr.sv(19): (vlog-13314) Defaulting port 'm_axil_wdata' kind to 'var' rather than 'wire' due to default compile option setting of -svinputport=relaxed.
# ** Warning: rtl/axil_crossbar_ms_wr.sv(20): (vlog-13314) Defaulting port 'm_axil_wstrb' kind to 'var' rather than 'wire' due to default compile option setting of -svinputport=relaxed.
# 
# Top level modules:
# 	axil_crossbar_ms_wr
# End time: 04:39:48 on Jul 28,2024, Elapsed time: 0:00:00
# Errors: 0, Warnings: 3
# vlog -sv rtl/axil_crossbar_sm_wr.sv
# Questa Intel Starter FPGA Edition-64 vlog 2021.2 Compiler 2021.04 Apr 14 2021
# Start time: 04:39:48 on Jul 28,2024
# vlog -reportprogress 300 -sv rtl/axil_crossbar_sm_wr.sv 
# -- Compiling module axil_crossbar_sm_wr
# ** Warning: rtl/axil_crossbar_sm_wr.sv(35): (vlog-13314) Defaulting port 's_axil_bresp' kind to 'var' rather than 'wire' due to default compile option setting of -svinputport=relaxed.
# 
# Top level modules:
# 	axil_crossbar_sm_wr
# End time: 04:39:48 on Jul 28,2024, Elapsed time: 0:00:00
# Errors: 0, Warnings: 1
# vlog -sv rtl/axil_decoder_addr_rd.sv
# Questa Intel Starter FPGA Edition-64 vlog 2021.2 Compiler 2021.04 Apr 14 2021
# Start time: 04:39:48 on Jul 28,2024
# vlog -reportprogress 300 -sv rtl/axil_decoder_addr_rd.sv 
# -- Compiling module axil_decoder_addr_rd
# 
# Top level modules:
# 	axil_decoder_addr_rd
# End time: 04:39:48 on Jul 28,2024, Elapsed time: 0:00:00
# Errors: 0, Warnings: 0
# vlog -sv rtl/axil_arbiter_priority_rd.sv
# Questa Intel Starter FPGA Edition-64 vlog 2021.2 Compiler 2021.04 Apr 14 2021
# Start time: 04:39:48 on Jul 28,2024
# vlog -reportprogress 300 -sv rtl/axil_arbiter_priority_rd.sv 
# -- Compiling module axil_arbiter_priority_rd
# 
# Top level modules:
# 	axil_arbiter_priority_rd
# End time: 04:39:49 on Jul 28,2024, Elapsed time: 0:00:01
# Errors: 0, Warnings: 0
# vlog -sv rtl/axil_crossbar_ms_rd.sv
# Questa Intel Starter FPGA Edition-64 vlog 2021.2 Compiler 2021.04 Apr 14 2021
# Start time: 04:39:49 on Jul 28,2024
# vlog -reportprogress 300 -sv rtl/axil_crossbar_ms_rd.sv 
# -- Compiling module axil_crossbar_ms_rd
# ** Warning: rtl/axil_crossbar_ms_rd.sv(15): (vlog-13314) Defaulting port 'm_axil_araddr' kind to 'var' rather than 'wire' due to default compile option setting of -svinputport=relaxed.
# 
# Top level modules:
# 	axil_crossbar_ms_rd
# End time: 04:39:49 on Jul 28,2024, Elapsed time: 0:00:00
# Errors: 0, Warnings: 1
# vlog -sv rtl/axil_crossbar_sm_rd.sv
# Questa Intel Starter FPGA Edition-64 vlog 2021.2 Compiler 2021.04 Apr 14 2021
# Start time: 04:39:49 on Jul 28,2024
# vlog -reportprogress 300 -sv rtl/axil_crossbar_sm_rd.sv 
# -- Compiling module axil_crossbar_sm_rd
# ** Warning: rtl/axil_crossbar_sm_rd.sv(30): (vlog-13314) Defaulting port 's_axil_rdata' kind to 'var' rather than 'wire' due to default compile option setting of -svinputport=relaxed.
# ** Warning: rtl/axil_crossbar_sm_rd.sv(31): (vlog-13314) Defaulting port 's_axil_rresp' kind to 'var' rather than 'wire' due to default compile option setting of -svinputport=relaxed.
# 
# Top level modules:
# 	axil_crossbar_sm_rd
# End time: 04:39:49 on Jul 28,2024, Elapsed time: 0:00:00
# Errors: 0, Warnings: 2
# vlog -sv rtl/axil_interconnect.sv
# Questa Intel Starter FPGA Edition-64 vlog 2021.2 Compiler 2021.04 Apr 14 2021
# Start time: 04:39:49 on Jul 28,2024
# vlog -reportprogress 300 -sv rtl/axil_interconnect.sv 
# -- Compiling module axil_interconnect
# ** Warning: rtl/axil_interconnect.sv(21): (vlog-13314) Defaulting port 'm_axil_awaddr' kind to 'var' rather than 'wire' due to default compile option setting of -svinputport=relaxed.
# ** Warning: rtl/axil_interconnect.sv(26): (vlog-13314) Defaulting port 'm_axil_wdata' kind to 'var' rather than 'wire' due to default compile option setting of -svinputport=relaxed.
# ** Warning: rtl/axil_interconnect.sv(27): (vlog-13314) Defaulting port 'm_axil_wstrb' kind to 'var' rather than 'wire' due to default compile option setting of -svinputport=relaxed.
# ** Warning: rtl/axil_interconnect.sv(52): (vlog-13314) Defaulting port 's_axil_bresp' kind to 'var' rather than 'wire' due to default compile option setting of -svinputport=relaxed.
# ** Warning: rtl/axil_interconnect.sv(61): (vlog-13314) Defaulting port 'm_axil_araddr' kind to 'var' rather than 'wire' due to default compile option setting of -svinputport=relaxed.
# ** Warning: rtl/axil_interconnect.sv(81): (vlog-13314) Defaulting port 's_axil_rdata' kind to 'var' rather than 'wire' due to default compile option setting of -svinputport=relaxed.
# ** Warning: rtl/axil_interconnect.sv(82): (vlog-13314) Defaulting port 's_axil_rresp' kind to 'var' rather than 'wire' due to default compile option setting of -svinputport=relaxed.
# 
# Top level modules:
# 	axil_interconnect
# End time: 04:39:49 on Jul 28,2024, Elapsed time: 0:00:00
# Errors: 0, Warnings: 7
# vlog -sv rtl/axil_interconnect_wrapper.sv
# Questa Intel Starter FPGA Edition-64 vlog 2021.2 Compiler 2021.04 Apr 14 2021
# Start time: 04:39:49 on Jul 28,2024
# vlog -reportprogress 300 -sv rtl/axil_interconnect_wrapper.sv 
# -- Compiling module axil_interconnect_wrapper
# ** Warning: rtl/axil_interconnect_wrapper.sv(24): (vlog-13314) Defaulting port 'm_axil_awaddr' kind to 'var' rather than 'wire' due to default compile option setting of -svinputport=relaxed.
# ** Warning: rtl/axil_interconnect_wrapper.sv(29): (vlog-13314) Defaulting port 'm_axil_wdata' kind to 'var' rather than 'wire' due to default compile option setting of -svinputport=relaxed.
# ** Warning: rtl/axil_interconnect_wrapper.sv(30): (vlog-13314) Defaulting port 'm_axil_wstrb' kind to 'var' rather than 'wire' due to default compile option setting of -svinputport=relaxed.
# ** Warning: rtl/axil_interconnect_wrapper.sv(55): (vlog-13314) Defaulting port 's_axil_bresp' kind to 'var' rather than 'wire' due to default compile option setting of -svinputport=relaxed.
# ** Warning: rtl/axil_interconnect_wrapper.sv(64): (vlog-13314) Defaulting port 'm_axil_araddr' kind to 'var' rather than 'wire' due to default compile option setting of -svinputport=relaxed.
# ** Warning: rtl/axil_interconnect_wrapper.sv(84): (vlog-13314) Defaulting port 's_axil_rdata' kind to 'var' rather than 'wire' due to default compile option setting of -svinputport=relaxed.
# ** Warning: rtl/axil_interconnect_wrapper.sv(85): (vlog-13314) Defaulting port 's_axil_rresp' kind to 'var' rather than 'wire' due to default compile option setting of -svinputport=relaxed.
# 
# Top level modules:
# 	axil_interconnect_wrapper
# End time: 04:39:49 on Jul 28,2024, Elapsed time: 0:00:00
# Errors: 0, Warnings: 7
# vlog -sv tb/axil_interconnect_tb.sv
# Questa Intel Starter FPGA Edition-64 vlog 2021.2 Compiler 2021.04 Apr 14 2021
# Start time: 04:39:49 on Jul 28,2024
# vlog -reportprogress 300 -sv tb/axil_interconnect_tb.sv 
# -- Compiling module axil_interconnect_tb
# -- Importing package pkg_tb
# 
# Top level modules:
# 	axil_interconnect_tb
# End time: 04:39:49 on Jul 28,2024, Elapsed time: 0:00:00
# Errors: 0, Warnings: 0
# 
# Set the number of master and slave interfaces
# set NUMBER_MASTER   32
# 32
# set NUMBER_SLAVE    16
# 16
# 
# Simulate the testbench
# vsim -t 1ns -L altera_mf_ver -voptargs="+acc" axil_interconnect_tb
# vsim -t 1ns -L altera_mf_ver -voptargs=""+acc"" axil_interconnect_tb 
# Start time: 04:39:49 on Jul 28,2024
# ** Note: (vsim-3812) Design is being optimized...
# ** Error: rtl/axil_interconnect.sv(196): Module 'axil_mux_wr' is not defined.
#  For instance 'axil_mux_wr_inst' at path 'axil_interconnect_tb.axil_interconnect_wrapper_inst.axil_interconnect_inst.axil_mux_wr'
# ** Error: rtl/axil_interconnect.sv(196): Module 'axil_mux_wr' is not defined.
#  For instance 'axil_mux_wr_inst' at path 'axil_interconnect_tb.axil_interconnect_wrapper_inst.axil_interconnect_inst.axil_mux_wr'
# ** Error: rtl/axil_interconnect.sv(196): Module 'axil_mux_wr' is not defined.
#  For instance 'axil_mux_wr_inst' at path 'axil_interconnect_tb.axil_interconnect_wrapper_inst.axil_interconnect_inst.axil_mux_wr'
# ** Error: rtl/axil_interconnect.sv(196): Module 'axil_mux_wr' is not defined.
#  For instance 'axil_mux_wr_inst' at path 'axil_interconnect_tb.axil_interconnect_wrapper_inst.axil_interconnect_inst.axil_mux_wr'
# ** Error: rtl/axil_interconnect.sv(196): Module 'axil_mux_wr' is not defined.
#  For instance 'axil_mux_wr_inst' at path 'axil_interconnect_tb.axil_interconnect_wrapper_inst.axil_interconnect_inst.axil_mux_wr'
# ** Error: rtl/axil_interconnect.sv(196): Module 'axil_mux_wr' is not defined.
#  For instance 'axil_mux_wr_inst' at path 'axil_interconnect_tb.axil_interconnect_wrapper_inst.axil_interconnect_inst.axil_mux_wr'
# ** Error: rtl/axil_interconnect.sv(196): Module 'axil_mux_wr' is not defined.
#  For instance 'axil_mux_wr_inst' at path 'axil_interconnect_tb.axil_interconnect_wrapper_inst.axil_interconnect_inst.axil_mux_wr'
# ** Error: rtl/axil_interconnect.sv(196): Module 'axil_mux_wr' is not defined.
#  For instance 'axil_mux_wr_inst' at path 'axil_interconnect_tb.axil_interconnect_wrapper_inst.axil_interconnect_inst.axil_mux_wr'
# ** Error: rtl/axil_interconnect.sv(196): Module 'axil_mux_wr' is not defined.
#  For instance 'axil_mux_wr_inst' at path 'axil_interconnect_tb.axil_interconnect_wrapper_inst.axil_interconnect_inst.axil_mux_wr'
# ** Error: rtl/axil_interconnect.sv(196): Module 'axil_mux_wr' is not defined.
#  For instance 'axil_mux_wr_inst' at path 'axil_interconnect_tb.axil_interconnect_wrapper_inst.axil_interconnect_inst.axil_mux_wr'
# ** Error: rtl/axil_interconnect.sv(196): Module 'axil_mux_wr' is not defined.
#  For instance 'axil_mux_wr_inst' at path 'axil_interconnect_tb.axil_interconnect_wrapper_inst.axil_interconnect_inst.axil_mux_wr'
# ** Error: rtl/axil_interconnect.sv(196): Module 'axil_mux_wr' is not defined.
#  For instance 'axil_mux_wr_inst' at path 'axil_interconnect_tb.axil_interconnect_wrapper_inst.axil_interconnect_inst.axil_mux_wr'
# ** Error: rtl/axil_interconnect.sv(196): Module 'axil_mux_wr' is not defined.
#  For instance 'axil_mux_wr_inst' at path 'axil_interconnect_tb.axil_interconnect_wrapper_inst.axil_interconnect_inst.axil_mux_wr'
# ** Error: rtl/axil_interconnect.sv(196): Module 'axil_mux_wr' is not defined.
#  For instance 'axil_mux_wr_inst' at path 'axil_interconnect_tb.axil_interconnect_wrapper_inst.axil_interconnect_inst.axil_mux_wr'
# ** Error: rtl/axil_interconnect.sv(196): Module 'axil_mux_wr' is not defined.
#  For instance 'axil_mux_wr_inst' at path 'axil_interconnect_tb.axil_interconnect_wrapper_inst.axil_interconnect_inst.axil_mux_wr'
# ** Error: rtl/axil_interconnect.sv(196): Module 'axil_mux_wr' is not defined.
#  For instance 'axil_mux_wr_inst' at path 'axil_interconnect_tb.axil_interconnect_wrapper_inst.axil_interconnect_inst.axil_mux_wr'
# ** Error: rtl/axil_interconnect.sv(196): Module 'axil_mux_wr' is not defined.
#  For instance 'axil_mux_wr_inst' at path 'axil_interconnect_tb.axil_interconnect_wrapper_inst.axil_interconnect_inst.axil_mux_wr'
# ** Error: rtl/axil_interconnect.sv(196): Module 'axil_mux_wr' is not defined.
#  For instance 'axil_mux_wr_inst' at path 'axil_interconnect_tb.axil_interconnect_wrapper_inst.axil_interconnect_inst.axil_mux_wr'
# ** Error: rtl/axil_interconnect.sv(196): Module 'axil_mux_wr' is not defined.
#  For instance 'axil_mux_wr_inst' at path 'axil_interconnect_tb.axil_interconnect_wrapper_inst.axil_interconnect_inst.axil_mux_wr'
# ** Error: rtl/axil_interconnect.sv(196): Module 'axil_mux_wr' is not defined.
#  For instance 'axil_mux_wr_inst' at path 'axil_interconnect_tb.axil_interconnect_wrapper_inst.axil_interconnect_inst.axil_mux_wr'
# ** Error: rtl/axil_interconnect.sv(196): Module 'axil_mux_wr' is not defined.
#  For instance 'axil_mux_wr_inst' at path 'axil_interconnect_tb.axil_interconnect_wrapper_inst.axil_interconnect_inst.axil_mux_wr'
# ** Error: rtl/axil_interconnect.sv(196): Module 'axil_mux_wr' is not defined.
#  For instance 'axil_mux_wr_inst' at path 'axil_interconnect_tb.axil_interconnect_wrapper_inst.axil_interconnect_inst.axil_mux_wr'
# ** Error: rtl/axil_interconnect.sv(196): Module 'axil_mux_wr' is not defined.
#  For instance 'axil_mux_wr_inst' at path 'axil_interconnect_tb.axil_interconnect_wrapper_inst.axil_interconnect_inst.axil_mux_wr'
# ** Error: rtl/axil_interconnect.sv(196): Module 'axil_mux_wr' is not defined.
#  For instance 'axil_mux_wr_inst' at path 'axil_interconnect_tb.axil_interconnect_wrapper_inst.axil_interconnect_inst.axil_mux_wr'
# ** Error: rtl/axil_interconnect.sv(196): Module 'axil_mux_wr' is not defined.
#  For instance 'axil_mux_wr_inst' at path 'axil_interconnect_tb.axil_interconnect_wrapper_inst.axil_interconnect_inst.axil_mux_wr'
# ** Error: rtl/axil_interconnect.sv(196): Module 'axil_mux_wr' is not defined.
#  For instance 'axil_mux_wr_inst' at path 'axil_interconnect_tb.axil_interconnect_wrapper_inst.axil_interconnect_inst.axil_mux_wr'
# ** Error: rtl/axil_interconnect.sv(196): Module 'axil_mux_wr' is not defined.
#  For instance 'axil_mux_wr_inst' at path 'axil_interconnect_tb.axil_interconnect_wrapper_inst.axil_interconnect_inst.axil_mux_wr'
# ** Error: rtl/axil_interconnect.sv(196): Module 'axil_mux_wr' is not defined.
#  For instance 'axil_mux_wr_inst' at path 'axil_interconnect_tb.axil_interconnect_wrapper_inst.axil_interconnect_inst.axil_mux_wr'
# ** Error: rtl/axil_interconnect.sv(196): Module 'axil_mux_wr' is not defined.
#  For instance 'axil_mux_wr_inst' at path 'axil_interconnect_tb.axil_interconnect_wrapper_inst.axil_interconnect_inst.axil_mux_wr'
# ** Error: rtl/axil_interconnect.sv(196): Module 'axil_mux_wr' is not defined.
#  For instance 'axil_mux_wr_inst' at path 'axil_interconnect_tb.axil_interconnect_wrapper_inst.axil_interconnect_inst.axil_mux_wr'
# ** Error: rtl/axil_interconnect.sv(196): Module 'axil_mux_wr' is not defined.
#  For instance 'axil_mux_wr_inst' at path 'axil_interconnect_tb.axil_interconnect_wrapper_inst.axil_interconnect_inst.axil_mux_wr'
# ** Error: rtl/axil_interconnect.sv(196): Module 'axil_mux_wr' is not defined.
#  For instance 'axil_mux_wr_inst' at path 'axil_interconnect_tb.axil_interconnect_wrapper_inst.axil_interconnect_inst.axil_mux_wr'
# Optimization failed
# ** Note: (vsim-12126) Error and warning message counts have been restored: Errors=32, Warnings=0.
# Error loading design
# Error: Error loading design
#        Pausing macro execution
# MACRO ./tb/vsim/vsim.do PAUSED at line 30
do tb/vsim/vsim.do
# Enable transcript logging
# transcript on
# 
# Create the work library
# vlib work
# ** Warning: (vlib-34) Library already exists at "work".
# Errors: 0, Warnings: 1
# 
# Compile the packages
# vlog -sv tb/pkg_tb.sv
# Questa Intel Starter FPGA Edition-64 vlog 2021.2 Compiler 2021.04 Apr 14 2021
# Start time: 04:40:17 on Jul 28,2024
# vlog -reportprogress 300 -sv tb/pkg_tb.sv 
# -- Compiling package pkg_tb
# 
# Top level modules:
# 	--none--
# End time: 04:40:17 on Jul 28,2024, Elapsed time: 0:00:00
# Errors: 0, Warnings: 0
# 
# Compile the design and testbench
# vlog -sv rtl/axil_decoder_addr_wr.sv
# Questa Intel Starter FPGA Edition-64 vlog 2021.2 Compiler 2021.04 Apr 14 2021
# Start time: 04:40:17 on Jul 28,2024
# vlog -reportprogress 300 -sv rtl/axil_decoder_addr_wr.sv 
# -- Compiling module axil_decoder_addr_wr
# 
# Top level modules:
# 	axil_decoder_addr_wr
# End time: 04:40:17 on Jul 28,2024, Elapsed time: 0:00:00
# Errors: 0, Warnings: 0
# vlog -sv rtl/axil_mux_wr.sv
# Questa Intel Starter FPGA Edition-64 vlog 2021.2 Compiler 2021.04 Apr 14 2021
# Start time: 04:40:17 on Jul 28,2024
# vlog -reportprogress 300 -sv rtl/axil_mux_wr.sv 
# -- Compiling module axil_mux_wr
# 
# Top level modules:
# 	axil_mux_wr
# End time: 04:40:17 on Jul 28,2024, Elapsed time: 0:00:00
# Errors: 0, Warnings: 0
# vlog -sv rtl/axil_response_addr_invalid_wr.sv
# Questa Intel Starter FPGA Edition-64 vlog 2021.2 Compiler 2021.04 Apr 14 2021
# Start time: 04:40:17 on Jul 28,2024
# vlog -reportprogress 300 -sv rtl/axil_response_addr_invalid_wr.sv 
# -- Compiling module axil_response_addr_invalid_wr
# 
# Top level modules:
# 	axil_response_addr_invalid_wr
# End time: 04:40:18 on Jul 28,2024, Elapsed time: 0:00:01
# Errors: 0, Warnings: 0
# vlog -sv rtl/axil_arbiter_priority_wr.sv
# Questa Intel Starter FPGA Edition-64 vlog 2021.2 Compiler 2021.04 Apr 14 2021
# Start time: 04:40:18 on Jul 28,2024
# vlog -reportprogress 300 -sv rtl/axil_arbiter_priority_wr.sv 
# -- Compiling module axil_arbiter_priority_wr
# 
# Top level modules:
# 	axil_arbiter_priority_wr
# End time: 04:40:18 on Jul 28,2024, Elapsed time: 0:00:00
# Errors: 0, Warnings: 0
# vlog -sv rtl/axil_crossbar_ms_wr.sv
# Questa Intel Starter FPGA Edition-64 vlog 2021.2 Compiler 2021.04 Apr 14 2021
# Start time: 04:40:18 on Jul 28,2024
# vlog -reportprogress 300 -sv rtl/axil_crossbar_ms_wr.sv 
# -- Compiling module axil_crossbar_ms_wr
# ** Warning: rtl/axil_crossbar_ms_wr.sv(15): (vlog-13314) Defaulting port 'm_axil_awaddr' kind to 'var' rather than 'wire' due to default compile option setting of -svinputport=relaxed.
# ** Warning: rtl/axil_crossbar_ms_wr.sv(19): (vlog-13314) Defaulting port 'm_axil_wdata' kind to 'var' rather than 'wire' due to default compile option setting of -svinputport=relaxed.
# ** Warning: rtl/axil_crossbar_ms_wr.sv(20): (vlog-13314) Defaulting port 'm_axil_wstrb' kind to 'var' rather than 'wire' due to default compile option setting of -svinputport=relaxed.
# 
# Top level modules:
# 	axil_crossbar_ms_wr
# End time: 04:40:18 on Jul 28,2024, Elapsed time: 0:00:00
# Errors: 0, Warnings: 3
# vlog -sv rtl/axil_crossbar_sm_wr.sv
# Questa Intel Starter FPGA Edition-64 vlog 2021.2 Compiler 2021.04 Apr 14 2021
# Start time: 04:40:18 on Jul 28,2024
# vlog -reportprogress 300 -sv rtl/axil_crossbar_sm_wr.sv 
# -- Compiling module axil_crossbar_sm_wr
# ** Warning: rtl/axil_crossbar_sm_wr.sv(35): (vlog-13314) Defaulting port 's_axil_bresp' kind to 'var' rather than 'wire' due to default compile option setting of -svinputport=relaxed.
# 
# Top level modules:
# 	axil_crossbar_sm_wr
# End time: 04:40:18 on Jul 28,2024, Elapsed time: 0:00:00
# Errors: 0, Warnings: 1
# vlog -sv rtl/axil_decoder_addr_rd.sv
# Questa Intel Starter FPGA Edition-64 vlog 2021.2 Compiler 2021.04 Apr 14 2021
# Start time: 04:40:18 on Jul 28,2024
# vlog -reportprogress 300 -sv rtl/axil_decoder_addr_rd.sv 
# -- Compiling module axil_decoder_addr_rd
# 
# Top level modules:
# 	axil_decoder_addr_rd
# End time: 04:40:18 on Jul 28,2024, Elapsed time: 0:00:00
# Errors: 0, Warnings: 0
# vlog -sv rtl/axil_arbiter_priority_rd.sv
# Questa Intel Starter FPGA Edition-64 vlog 2021.2 Compiler 2021.04 Apr 14 2021
# Start time: 04:40:18 on Jul 28,2024
# vlog -reportprogress 300 -sv rtl/axil_arbiter_priority_rd.sv 
# -- Compiling module axil_arbiter_priority_rd
# 
# Top level modules:
# 	axil_arbiter_priority_rd
# End time: 04:40:18 on Jul 28,2024, Elapsed time: 0:00:00
# Errors: 0, Warnings: 0
# vlog -sv rtl/axil_crossbar_ms_rd.sv
# Questa Intel Starter FPGA Edition-64 vlog 2021.2 Compiler 2021.04 Apr 14 2021
# Start time: 04:40:18 on Jul 28,2024
# vlog -reportprogress 300 -sv rtl/axil_crossbar_ms_rd.sv 
# -- Compiling module axil_crossbar_ms_rd
# ** Warning: rtl/axil_crossbar_ms_rd.sv(15): (vlog-13314) Defaulting port 'm_axil_araddr' kind to 'var' rather than 'wire' due to default compile option setting of -svinputport=relaxed.
# 
# Top level modules:
# 	axil_crossbar_ms_rd
# End time: 04:40:18 on Jul 28,2024, Elapsed time: 0:00:00
# Errors: 0, Warnings: 1
# vlog -sv rtl/axil_crossbar_sm_rd.sv
# Questa Intel Starter FPGA Edition-64 vlog 2021.2 Compiler 2021.04 Apr 14 2021
# Start time: 04:40:18 on Jul 28,2024
# vlog -reportprogress 300 -sv rtl/axil_crossbar_sm_rd.sv 
# -- Compiling module axil_crossbar_sm_rd
# ** Warning: rtl/axil_crossbar_sm_rd.sv(30): (vlog-13314) Defaulting port 's_axil_rdata' kind to 'var' rather than 'wire' due to default compile option setting of -svinputport=relaxed.
# ** Warning: rtl/axil_crossbar_sm_rd.sv(31): (vlog-13314) Defaulting port 's_axil_rresp' kind to 'var' rather than 'wire' due to default compile option setting of -svinputport=relaxed.
# 
# Top level modules:
# 	axil_crossbar_sm_rd
# End time: 04:40:18 on Jul 28,2024, Elapsed time: 0:00:00
# Errors: 0, Warnings: 2
# vlog -sv rtl/axil_interconnect.sv
# Questa Intel Starter FPGA Edition-64 vlog 2021.2 Compiler 2021.04 Apr 14 2021
# Start time: 04:40:18 on Jul 28,2024
# vlog -reportprogress 300 -sv rtl/axil_interconnect.sv 
# -- Compiling module axil_interconnect
# ** Warning: rtl/axil_interconnect.sv(21): (vlog-13314) Defaulting port 'm_axil_awaddr' kind to 'var' rather than 'wire' due to default compile option setting of -svinputport=relaxed.
# ** Warning: rtl/axil_interconnect.sv(26): (vlog-13314) Defaulting port 'm_axil_wdata' kind to 'var' rather than 'wire' due to default compile option setting of -svinputport=relaxed.
# ** Warning: rtl/axil_interconnect.sv(27): (vlog-13314) Defaulting port 'm_axil_wstrb' kind to 'var' rather than 'wire' due to default compile option setting of -svinputport=relaxed.
# ** Warning: rtl/axil_interconnect.sv(52): (vlog-13314) Defaulting port 's_axil_bresp' kind to 'var' rather than 'wire' due to default compile option setting of -svinputport=relaxed.
# ** Warning: rtl/axil_interconnect.sv(61): (vlog-13314) Defaulting port 'm_axil_araddr' kind to 'var' rather than 'wire' due to default compile option setting of -svinputport=relaxed.
# ** Warning: rtl/axil_interconnect.sv(81): (vlog-13314) Defaulting port 's_axil_rdata' kind to 'var' rather than 'wire' due to default compile option setting of -svinputport=relaxed.
# ** Warning: rtl/axil_interconnect.sv(82): (vlog-13314) Defaulting port 's_axil_rresp' kind to 'var' rather than 'wire' due to default compile option setting of -svinputport=relaxed.
# 
# Top level modules:
# 	axil_interconnect
# End time: 04:40:18 on Jul 28,2024, Elapsed time: 0:00:00
# Errors: 0, Warnings: 7
# vlog -sv rtl/axil_interconnect_wrapper.sv
# Questa Intel Starter FPGA Edition-64 vlog 2021.2 Compiler 2021.04 Apr 14 2021
# Start time: 04:40:18 on Jul 28,2024
# vlog -reportprogress 300 -sv rtl/axil_interconnect_wrapper.sv 
# -- Compiling module axil_interconnect_wrapper
# ** Warning: rtl/axil_interconnect_wrapper.sv(24): (vlog-13314) Defaulting port 'm_axil_awaddr' kind to 'var' rather than 'wire' due to default compile option setting of -svinputport=relaxed.
# ** Warning: rtl/axil_interconnect_wrapper.sv(29): (vlog-13314) Defaulting port 'm_axil_wdata' kind to 'var' rather than 'wire' due to default compile option setting of -svinputport=relaxed.
# ** Warning: rtl/axil_interconnect_wrapper.sv(30): (vlog-13314) Defaulting port 'm_axil_wstrb' kind to 'var' rather than 'wire' due to default compile option setting of -svinputport=relaxed.
# ** Warning: rtl/axil_interconnect_wrapper.sv(55): (vlog-13314) Defaulting port 's_axil_bresp' kind to 'var' rather than 'wire' due to default compile option setting of -svinputport=relaxed.
# ** Warning: rtl/axil_interconnect_wrapper.sv(64): (vlog-13314) Defaulting port 'm_axil_araddr' kind to 'var' rather than 'wire' due to default compile option setting of -svinputport=relaxed.
# ** Warning: rtl/axil_interconnect_wrapper.sv(84): (vlog-13314) Defaulting port 's_axil_rdata' kind to 'var' rather than 'wire' due to default compile option setting of -svinputport=relaxed.
# ** Warning: rtl/axil_interconnect_wrapper.sv(85): (vlog-13314) Defaulting port 's_axil_rresp' kind to 'var' rather than 'wire' due to default compile option setting of -svinputport=relaxed.
# 
# Top level modules:
# 	axil_interconnect_wrapper
# End time: 04:40:18 on Jul 28,2024, Elapsed time: 0:00:00
# Errors: 0, Warnings: 7
# vlog -sv tb/axil_interconnect_tb.sv
# Questa Intel Starter FPGA Edition-64 vlog 2021.2 Compiler 2021.04 Apr 14 2021
# Start time: 04:40:18 on Jul 28,2024
# vlog -reportprogress 300 -sv tb/axil_interconnect_tb.sv 
# -- Compiling module axil_interconnect_tb
# -- Importing package pkg_tb
# 
# Top level modules:
# 	axil_interconnect_tb
# End time: 04:40:18 on Jul 28,2024, Elapsed time: 0:00:00
# Errors: 0, Warnings: 0
# 
# Set the number of master and slave interfaces
# set NUMBER_MASTER   32
# 32
# set NUMBER_SLAVE    16
# 16
# 
# Simulate the testbench
# vsim -t 1ns -L altera_mf_ver -voptargs="+acc" axil_interconnect_tb
# vsim -t 1ns -L altera_mf_ver -voptargs=""+acc"" axil_interconnect_tb 
# Start time: 04:39:49 on Jul 28,2024
# ** Note: (vsim-3812) Design is being optimized...
# ** Warning: rtl/axil_interconnect.sv(21): (vopt-13314) Defaulting port 'm_axil_awaddr' kind to 'var' rather than 'wire' due to default compile option setting of -svinputport=relaxed.
# ** Warning: rtl/axil_interconnect.sv(26): (vopt-13314) Defaulting port 'm_axil_wdata' kind to 'var' rather than 'wire' due to default compile option setting of -svinputport=relaxed.
# ** Warning: rtl/axil_interconnect.sv(27): (vopt-13314) Defaulting port 'm_axil_wstrb' kind to 'var' rather than 'wire' due to default compile option setting of -svinputport=relaxed.
# ** Warning: rtl/axil_interconnect.sv(52): (vopt-13314) Defaulting port 's_axil_bresp' kind to 'var' rather than 'wire' due to default compile option setting of -svinputport=relaxed.
# ** Warning: rtl/axil_interconnect.sv(61): (vopt-13314) Defaulting port 'm_axil_araddr' kind to 'var' rather than 'wire' due to default compile option setting of -svinputport=relaxed.
# ** Warning: rtl/axil_interconnect.sv(81): (vopt-13314) Defaulting port 's_axil_rdata' kind to 'var' rather than 'wire' due to default compile option setting of -svinputport=relaxed.
# ** Warning: rtl/axil_interconnect.sv(82): (vopt-13314) Defaulting port 's_axil_rresp' kind to 'var' rather than 'wire' due to default compile option setting of -svinputport=relaxed.
# ** Warning: rtl/axil_interconnect.sv(353): (vopt-2685) [TFMPC] - Too few port connections for 'axil_decoder_addr_rd_inst'.  Expected 6, found 4.
# ** Warning: rtl/axil_interconnect.sv(353): (vopt-2718) [TFMPC] - Missing connection for port 'aresetn'.
# ** Warning: rtl/axil_interconnect.sv(353): (vopt-2718) [TFMPC] - Missing connection for port 'aclk'.
# ** Warning: rtl/axil_interconnect.sv(353): (vopt-2685) [TFMPC] - Too few port connections for 'axil_decoder_addr_rd_inst'.  Expected 6, found 4.
# ** Warning: rtl/axil_interconnect.sv(353): (vopt-2718) [TFMPC] - Missing connection for port 'aresetn'.
# ** Warning: rtl/axil_interconnect.sv(353): (vopt-2718) [TFMPC] - Missing connection for port 'aclk'.
# ** Warning: rtl/axil_interconnect.sv(353): (vopt-2685) [TFMPC] - Too few port connections for 'axil_decoder_addr_rd_inst'.  Expected 6, found 4.
# ** Warning: rtl/axil_interconnect.sv(353): (vopt-2718) [TFMPC] - Missing connection for port 'aresetn'.
# ** Warning: rtl/axil_interconnect.sv(353): (vopt-2718) [TFMPC] - Missing connection for port 'aclk'.
# ** Warning: rtl/axil_interconnect.sv(353): (vopt-2685) [TFMPC] - Too few port connections for 'axil_decoder_addr_rd_inst'.  Expected 6, found 4.
# ** Warning: rtl/axil_interconnect.sv(353): (vopt-2718) [TFMPC] - Missing connection for port 'aresetn'.
# ** Warning: rtl/axil_interconnect.sv(353): (vopt-2718) [TFMPC] - Missing connection for port 'aclk'.
# ** Warning: rtl/axil_interconnect.sv(353): (vopt-2685) [TFMPC] - Too few port connections for 'axil_decoder_addr_rd_inst'.  Expected 6, found 4.
# ** Warning: rtl/axil_interconnect.sv(353): (vopt-2718) [TFMPC] - Missing connection for port 'aresetn'.
# ** Warning: rtl/axil_interconnect.sv(353): (vopt-2718) [TFMPC] - Missing connection for port 'aclk'.
# ** Warning: rtl/axil_interconnect.sv(353): (vopt-2685) [TFMPC] - Too few port connections for 'axil_decoder_addr_rd_inst'.  Expected 6, found 4.
# ** Warning: rtl/axil_interconnect.sv(353): (vopt-2718) [TFMPC] - Missing connection for port 'aresetn'.
# ** Warning: rtl/axil_interconnect.sv(353): (vopt-2718) [TFMPC] - Missing connection for port 'aclk'.
# ** Warning: rtl/axil_interconnect.sv(353): (vopt-2685) [TFMPC] - Too few port connections for 'axil_decoder_addr_rd_inst'.  Expected 6, found 4.
# ** Warning: rtl/axil_interconnect.sv(353): (vopt-2718) [TFMPC] - Missing connection for port 'aresetn'.
# ** Warning: rtl/axil_interconnect.sv(353): (vopt-2718) [TFMPC] - Missing connection for port 'aclk'.
# ** Warning: rtl/axil_interconnect.sv(353): (vopt-2685) [TFMPC] - Too few port connections for 'axil_decoder_addr_rd_inst'.  Expected 6, found 4.
# ** Warning: rtl/axil_interconnect.sv(353): (vopt-2718) [TFMPC] - Missing connection for port 'aresetn'.
# ** Warning: rtl/axil_interconnect.sv(353): (vopt-2718) [TFMPC] - Missing connection for port 'aclk'.
# ** Warning: rtl/axil_interconnect.sv(353): (vopt-2685) [TFMPC] - Too few port connections for 'axil_decoder_addr_rd_inst'.  Expected 6, found 4.
# ** Warning: rtl/axil_interconnect.sv(353): (vopt-2718) [TFMPC] - Missing connection for port 'aresetn'.
# ** Warning: rtl/axil_interconnect.sv(353): (vopt-2718) [TFMPC] - Missing connection for port 'aclk'.
# ** Warning: rtl/axil_interconnect.sv(353): (vopt-2685) [TFMPC] - Too few port connections for 'axil_decoder_addr_rd_inst'.  Expected 6, found 4.
# ** Warning: rtl/axil_interconnect.sv(353): (vopt-2718) [TFMPC] - Missing connection for port 'aresetn'.
# ** Warning: rtl/axil_interconnect.sv(353): (vopt-2718) [TFMPC] - Missing connection for port 'aclk'.
# ** Warning: rtl/axil_interconnect.sv(353): (vopt-2685) [TFMPC] - Too few port connections for 'axil_decoder_addr_rd_inst'.  Expected 6, found 4.
# ** Warning: rtl/axil_interconnect.sv(353): (vopt-2718) [TFMPC] - Missing connection for port 'aresetn'.
# ** Warning: rtl/axil_interconnect.sv(353): (vopt-2718) [TFMPC] - Missing connection for port 'aclk'.
# ** Warning: rtl/axil_interconnect.sv(353): (vopt-2685) [TFMPC] - Too few port connections for 'axil_decoder_addr_rd_inst'.  Expected 6, found 4.
# ** Warning: rtl/axil_interconnect.sv(353): (vopt-2718) [TFMPC] - Missing connection for port 'aresetn'.
# ** Warning: rtl/axil_interconnect.sv(353): (vopt-2718) [TFMPC] - Missing connection for port 'aclk'.
# ** Warning: rtl/axil_interconnect.sv(353): (vopt-2685) [TFMPC] - Too few port connections for 'axil_decoder_addr_rd_inst'.  Expected 6, found 4.
# ** Warning: rtl/axil_interconnect.sv(353): (vopt-2718) [TFMPC] - Missing connection for port 'aresetn'.
# ** Warning: rtl/axil_interconnect.sv(353): (vopt-2718) [TFMPC] - Missing connection for port 'aclk'.
# ** Warning: rtl/axil_interconnect.sv(353): (vopt-2685) [TFMPC] - Too few port connections for 'axil_decoder_addr_rd_inst'.  Expected 6, found 4.
# ** Warning: rtl/axil_interconnect.sv(353): (vopt-2718) [TFMPC] - Missing connection for port 'aresetn'.
# ** Warning: rtl/axil_interconnect.sv(353): (vopt-2718) [TFMPC] - Missing connection for port 'aclk'.
# ** Warning: rtl/axil_interconnect.sv(353): (vopt-2685) [TFMPC] - Too few port connections for 'axil_decoder_addr_rd_inst'.  Expected 6, found 4.
# ** Warning: rtl/axil_interconnect.sv(353): (vopt-2718) [TFMPC] - Missing connection for port 'aresetn'.
# ** Warning: rtl/axil_interconnect.sv(353): (vopt-2718) [TFMPC] - Missing connection for port 'aclk'.
# ** Warning: rtl/axil_interconnect.sv(353): (vopt-2685) [TFMPC] - Too few port connections for 'axil_decoder_addr_rd_inst'.  Expected 6, found 4.
# ** Warning: rtl/axil_interconnect.sv(353): (vopt-2718) [TFMPC] - Missing connection for port 'aresetn'.
# ** Warning: rtl/axil_interconnect.sv(353): (vopt-2718) [TFMPC] - Missing connection for port 'aclk'.
# ** Warning: rtl/axil_interconnect.sv(353): (vopt-2685) [TFMPC] - Too few port connections for 'axil_decoder_addr_rd_inst'.  Expected 6, found 4.
# ** Warning: rtl/axil_interconnect.sv(353): (vopt-2718) [TFMPC] - Missing connection for port 'aresetn'.
# ** Warning: rtl/axil_interconnect.sv(353): (vopt-2718) [TFMPC] - Missing connection for port 'aclk'.
# ** Warning: rtl/axil_interconnect.sv(353): (vopt-2685) [TFMPC] - Too few port connections for 'axil_decoder_addr_rd_inst'.  Expected 6, found 4.
# ** Warning: rtl/axil_interconnect.sv(353): (vopt-2718) [TFMPC] - Missing connection for port 'aresetn'.
# ** Warning: rtl/axil_interconnect.sv(353): (vopt-2718) [TFMPC] - Missing connection for port 'aclk'.
# ** Warning: rtl/axil_interconnect.sv(353): (vopt-2685) [TFMPC] - Too few port connections for 'axil_decoder_addr_rd_inst'.  Expected 6, found 4.
# ** Warning: rtl/axil_interconnect.sv(353): (vopt-2718) [TFMPC] - Missing connection for port 'aresetn'.
# ** Warning: rtl/axil_interconnect.sv(353): (vopt-2718) [TFMPC] - Missing connection for port 'aclk'.
# ** Warning: rtl/axil_interconnect.sv(353): (vopt-2685) [TFMPC] - Too few port connections for 'axil_decoder_addr_rd_inst'.  Expected 6, found 4.
# ** Warning: rtl/axil_interconnect.sv(353): (vopt-2718) [TFMPC] - Missing connection for port 'aresetn'.
# ** Warning: rtl/axil_interconnect.sv(353): (vopt-2718) [TFMPC] - Missing connection for port 'aclk'.
# ** Warning: rtl/axil_interconnect.sv(353): (vopt-2685) [TFMPC] - Too few port connections for 'axil_decoder_addr_rd_inst'.  Expected 6, found 4.
# ** Warning: rtl/axil_interconnect.sv(353): (vopt-2718) [TFMPC] - Missing connection for port 'aresetn'.
# ** Warning: rtl/axil_interconnect.sv(353): (vopt-2718) [TFMPC] - Missing connection for port 'aclk'.
# ** Warning: rtl/axil_interconnect.sv(353): (vopt-2685) [TFMPC] - Too few port connections for 'axil_decoder_addr_rd_inst'.  Expected 6, found 4.
# ** Warning: rtl/axil_interconnect.sv(353): (vopt-2718) [TFMPC] - Missing connection for port 'aresetn'.
# ** Warning: rtl/axil_interconnect.sv(353): (vopt-2718) [TFMPC] - Missing connection for port 'aclk'.
# ** Warning: rtl/axil_interconnect.sv(353): (vopt-2685) [TFMPC] - Too few port connections for 'axil_decoder_addr_rd_inst'.  Expected 6, found 4.
# ** Warning: rtl/axil_interconnect.sv(353): (vopt-2718) [TFMPC] - Missing connection for port 'aresetn'.
# ** Warning: rtl/axil_interconnect.sv(353): (vopt-2718) [TFMPC] - Missing connection for port 'aclk'.
# ** Warning: rtl/axil_interconnect.sv(353): (vopt-2685) [TFMPC] - Too few port connections for 'axil_decoder_addr_rd_inst'.  Expected 6, found 4.
# ** Warning: rtl/axil_interconnect.sv(353): (vopt-2718) [TFMPC] - Missing connection for port 'aresetn'.
# ** Warning: rtl/axil_interconnect.sv(353): (vopt-2718) [TFMPC] - Missing connection for port 'aclk'.
# ** Warning: rtl/axil_interconnect.sv(353): (vopt-2685) [TFMPC] - Too few port connections for 'axil_decoder_addr_rd_inst'.  Expected 6, found 4.
# ** Warning: rtl/axil_interconnect.sv(353): (vopt-2718) [TFMPC] - Missing connection for port 'aresetn'.
# ** Warning: rtl/axil_interconnect.sv(353): (vopt-2718) [TFMPC] - Missing connection for port 'aclk'.
# ** Warning: rtl/axil_interconnect.sv(353): (vopt-2685) [TFMPC] - Too few port connections for 'axil_decoder_addr_rd_inst'.  Expected 6, found 4.
# ** Warning: rtl/axil_interconnect.sv(353): (vopt-2718) [TFMPC] - Missing connection for port 'aresetn'.
# ** Warning: rtl/axil_interconnect.sv(353): (vopt-2718) [TFMPC] - Missing connection for port 'aclk'.
# ** Warning: rtl/axil_interconnect.sv(353): (vopt-2685) [TFMPC] - Too few port connections for 'axil_decoder_addr_rd_inst'.  Expected 6, found 4.
# ** Warning: rtl/axil_interconnect.sv(353): (vopt-2718) [TFMPC] - Missing connection for port 'aresetn'.
# ** Warning: rtl/axil_interconnect.sv(353): (vopt-2718) [TFMPC] - Missing connection for port 'aclk'.
# ** Warning: rtl/axil_interconnect.sv(353): (vopt-2685) [TFMPC] - Too few port connections for 'axil_decoder_addr_rd_inst'.  Expected 6, found 4.
# ** Warning: rtl/axil_interconnect.sv(353): (vopt-2718) [TFMPC] - Missing connection for port 'aresetn'.
# ** Warning: rtl/axil_interconnect.sv(353): (vopt-2718) [TFMPC] - Missing connection for port 'aclk'.
# ** Warning: rtl/axil_interconnect.sv(353): (vopt-2685) [TFMPC] - Too few port connections for 'axil_decoder_addr_rd_inst'.  Expected 6, found 4.
# ** Warning: rtl/axil_interconnect.sv(353): (vopt-2718) [TFMPC] - Missing connection for port 'aresetn'.
# ** Warning: rtl/axil_interconnect.sv(353): (vopt-2718) [TFMPC] - Missing connection for port 'aclk'.
# ** Warning: rtl/axil_interconnect.sv(353): (vopt-2685) [TFMPC] - Too few port connections for 'axil_decoder_addr_rd_inst'.  Expected 6, found 4.
# ** Warning: rtl/axil_interconnect.sv(353): (vopt-2718) [TFMPC] - Missing connection for port 'aresetn'.
# ** Warning: rtl/axil_interconnect.sv(353): (vopt-2718) [TFMPC] - Missing connection for port 'aclk'.
# ** Warning: rtl/axil_interconnect.sv(353): (vopt-2685) [TFMPC] - Too few port connections for 'axil_decoder_addr_rd_inst'.  Expected 6, found 4.
# ** Warning: rtl/axil_interconnect.sv(353): (vopt-2718) [TFMPC] - Missing connection for port 'aresetn'.
# ** Warning: rtl/axil_interconnect.sv(353): (vopt-2718) [TFMPC] - Missing connection for port 'aclk'.
# ** Warning: rtl/axil_interconnect.sv(353): (vopt-2685) [TFMPC] - Too few port connections for 'axil_decoder_addr_rd_inst'.  Expected 6, found 4.
# ** Warning: rtl/axil_interconnect.sv(353): (vopt-2718) [TFMPC] - Missing connection for port 'aresetn'.
# ** Warning: rtl/axil_interconnect.sv(353): (vopt-2718) [TFMPC] - Missing connection for port 'aclk'.
# ** Warning: rtl/axil_interconnect_wrapper.sv(24): (vopt-13314) Defaulting port 'm_axil_awaddr' kind to 'var' rather than 'wire' due to default compile option setting of -svinputport=relaxed.
# ** Warning: rtl/axil_interconnect_wrapper.sv(29): (vopt-13314) Defaulting port 'm_axil_wdata' kind to 'var' rather than 'wire' due to default compile option setting of -svinputport=relaxed.
# ** Warning: rtl/axil_interconnect_wrapper.sv(30): (vopt-13314) Defaulting port 'm_axil_wstrb' kind to 'var' rather than 'wire' due to default compile option setting of -svinputport=relaxed.
# ** Warning: rtl/axil_interconnect_wrapper.sv(55): (vopt-13314) Defaulting port 's_axil_bresp' kind to 'var' rather than 'wire' due to default compile option setting of -svinputport=relaxed.
# ** Warning: rtl/axil_interconnect_wrapper.sv(64): (vopt-13314) Defaulting port 'm_axil_araddr' kind to 'var' rather than 'wire' due to default compile option setting of -svinputport=relaxed.
# ** Warning: rtl/axil_interconnect_wrapper.sv(84): (vopt-13314) Defaulting port 's_axil_rdata' kind to 'var' rather than 'wire' due to default compile option setting of -svinputport=relaxed.
# ** Warning: rtl/axil_interconnect_wrapper.sv(85): (vopt-13314) Defaulting port 's_axil_rresp' kind to 'var' rather than 'wire' due to default compile option setting of -svinputport=relaxed.
# ** Warning: rtl/axil_crossbar_ms_wr.sv(15): (vopt-13314) Defaulting port 'm_axil_awaddr' kind to 'var' rather than 'wire' due to default compile option setting of -svinputport=relaxed.
# ** Warning: rtl/axil_crossbar_ms_wr.sv(19): (vopt-13314) Defaulting port 'm_axil_wdata' kind to 'var' rather than 'wire' due to default compile option setting of -svinputport=relaxed.
# ** Warning: rtl/axil_crossbar_ms_wr.sv(20): (vopt-13314) Defaulting port 'm_axil_wstrb' kind to 'var' rather than 'wire' due to default compile option setting of -svinputport=relaxed.
# ** Note: (vopt-143) Recognized 1 FSM in module "axil_response_addr_invalid_wr(fast)".
# ** Warning: rtl/axil_crossbar_sm_rd.sv(30): (vopt-13314) Defaulting port 's_axil_rdata' kind to 'var' rather than 'wire' due to default compile option setting of -svinputport=relaxed.
# ** Warning: rtl/axil_crossbar_sm_rd.sv(31): (vopt-13314) Defaulting port 's_axil_rresp' kind to 'var' rather than 'wire' due to default compile option setting of -svinputport=relaxed.
# ** Warning: rtl/axil_crossbar_sm_wr.sv(35): (vopt-13314) Defaulting port 's_axil_bresp' kind to 'var' rather than 'wire' due to default compile option setting of -svinputport=relaxed.
# ** Warning: rtl/axil_crossbar_ms_rd.sv(15): (vopt-13314) Defaulting port 'm_axil_araddr' kind to 'var' rather than 'wire' due to default compile option setting of -svinputport=relaxed.
# ** Note: (vsim-12126) Error and warning message counts have been restored: Errors=32, Warnings=117.
# Loading sv_std.std
# Loading work.pkg_tb(fast)
# Loading work.axil_interconnect_tb(fast)
# Loading work.axil_interconnect_wrapper(fast)
# Loading work.axil_interconnect(fast)
# Loading work.axil_decoder_addr_wr(fast)
# Loading work.axil_mux_wr(fast)
# Loading work.axil_response_addr_invalid_wr(fast)
# Loading work.axil_arbiter_priority_wr(fast)
# Loading work.axil_crossbar_ms_wr(fast)
# Loading work.axil_crossbar_sm_wr(fast)
# Loading work.axil_decoder_addr_rd(fast)
# Loading work.axil_arbiter_priority_rd(fast)
# Loading work.axil_crossbar_ms_rd(fast)
# Loading work.axil_crossbar_sm_rd(fast)
# ** Warning: (vsim-3015) [PCDPC] - Port size (32) does not match connection size (1) for port 's_axil_wdata'. The port definition is at: rtl/axil_response_addr_invalid_wr.sv(19).
#    Time: 0 ns  Iteration: 0  Instance: /axil_interconnect_tb/axil_interconnect_wrapper_inst/axil_interconnect_inst/axil_response_addr_invalid_wr[0]/axil_response_addr_invalid_wr File: rtl/axil_interconnect.sv Line: 239
# ** Warning: (vsim-3015) [PCDPC] - Port size (8) does not match connection size (4) for port 's_axil_wstrb'. The port definition is at: rtl/axil_response_addr_invalid_wr.sv(20).
#    Time: 0 ns  Iteration: 0  Instance: /axil_interconnect_tb/axil_interconnect_wrapper_inst/axil_interconnect_inst/axil_response_addr_invalid_wr[0]/axil_response_addr_invalid_wr File: rtl/axil_interconnect.sv Line: 239
# ** Warning: (vsim-3015) [PCDPC] - Port size (32) does not match connection size (1) for port 's_axil_wdata'. The port definition is at: rtl/axil_response_addr_invalid_wr.sv(19).
#    Time: 0 ns  Iteration: 0  Instance: /axil_interconnect_tb/axil_interconnect_wrapper_inst/axil_interconnect_inst/axil_response_addr_invalid_wr[1]/axil_response_addr_invalid_wr File: rtl/axil_interconnect.sv Line: 239
# ** Warning: (vsim-3015) [PCDPC] - Port size (8) does not match connection size (4) for port 's_axil_wstrb'. The port definition is at: rtl/axil_response_addr_invalid_wr.sv(20).
#    Time: 0 ns  Iteration: 0  Instance: /axil_interconnect_tb/axil_interconnect_wrapper_inst/axil_interconnect_inst/axil_response_addr_invalid_wr[1]/axil_response_addr_invalid_wr File: rtl/axil_interconnect.sv Line: 239
# ** Warning: (vsim-3015) [PCDPC] - Port size (32) does not match connection size (1) for port 's_axil_wdata'. The port definition is at: rtl/axil_response_addr_invalid_wr.sv(19).
#    Time: 0 ns  Iteration: 0  Instance: /axil_interconnect_tb/axil_interconnect_wrapper_inst/axil_interconnect_inst/axil_response_addr_invalid_wr[2]/axil_response_addr_invalid_wr File: rtl/axil_interconnect.sv Line: 239
# ** Warning: (vsim-3015) [PCDPC] - Port size (8) does not match connection size (4) for port 's_axil_wstrb'. The port definition is at: rtl/axil_response_addr_invalid_wr.sv(20).
#    Time: 0 ns  Iteration: 0  Instance: /axil_interconnect_tb/axil_interconnect_wrapper_inst/axil_interconnect_inst/axil_response_addr_invalid_wr[2]/axil_response_addr_invalid_wr File: rtl/axil_interconnect.sv Line: 239
# ** Warning: (vsim-3015) [PCDPC] - Port size (32) does not match connection size (1) for port 's_axil_wdata'. The port definition is at: rtl/axil_response_addr_invalid_wr.sv(19).
#    Time: 0 ns  Iteration: 0  Instance: /axil_interconnect_tb/axil_interconnect_wrapper_inst/axil_interconnect_inst/axil_response_addr_invalid_wr[3]/axil_response_addr_invalid_wr File: rtl/axil_interconnect.sv Line: 239
# ** Warning: (vsim-3015) [PCDPC] - Port size (8) does not match connection size (4) for port 's_axil_wstrb'. The port definition is at: rtl/axil_response_addr_invalid_wr.sv(20).
#    Time: 0 ns  Iteration: 0  Instance: /axil_interconnect_tb/axil_interconnect_wrapper_inst/axil_interconnect_inst/axil_response_addr_invalid_wr[3]/axil_response_addr_invalid_wr File: rtl/axil_interconnect.sv Line: 239
# ** Warning: (vsim-3015) [PCDPC] - Port size (32) does not match connection size (1) for port 's_axil_wdata'. The port definition is at: rtl/axil_response_addr_invalid_wr.sv(19).
#    Time: 0 ns  Iteration: 0  Instance: /axil_interconnect_tb/axil_interconnect_wrapper_inst/axil_interconnect_inst/axil_response_addr_invalid_wr[4]/axil_response_addr_invalid_wr File: rtl/axil_interconnect.sv Line: 239
# ** Warning: (vsim-3015) [PCDPC] - Port size (8) does not match connection size (4) for port 's_axil_wstrb'. The port definition is at: rtl/axil_response_addr_invalid_wr.sv(20).
#    Time: 0 ns  Iteration: 0  Instance: /axil_interconnect_tb/axil_interconnect_wrapper_inst/axil_interconnect_inst/axil_response_addr_invalid_wr[4]/axil_response_addr_invalid_wr File: rtl/axil_interconnect.sv Line: 239
# ** Warning: (vsim-3015) [PCDPC] - Port size (32) does not match connection size (1) for port 's_axil_wdata'. The port definition is at: rtl/axil_response_addr_invalid_wr.sv(19).
#    Time: 0 ns  Iteration: 0  Instance: /axil_interconnect_tb/axil_interconnect_wrapper_inst/axil_interconnect_inst/axil_response_addr_invalid_wr[5]/axil_response_addr_invalid_wr File: rtl/axil_interconnect.sv Line: 239
# ** Warning: (vsim-3015) [PCDPC] - Port size (8) does not match connection size (4) for port 's_axil_wstrb'. The port definition is at: rtl/axil_response_addr_invalid_wr.sv(20).
#    Time: 0 ns  Iteration: 0  Instance: /axil_interconnect_tb/axil_interconnect_wrapper_inst/axil_interconnect_inst/axil_response_addr_invalid_wr[5]/axil_response_addr_invalid_wr File: rtl/axil_interconnect.sv Line: 239
# ** Warning: (vsim-3015) [PCDPC] - Port size (32) does not match connection size (1) for port 's_axil_wdata'. The port definition is at: rtl/axil_response_addr_invalid_wr.sv(19).
#    Time: 0 ns  Iteration: 0  Instance: /axil_interconnect_tb/axil_interconnect_wrapper_inst/axil_interconnect_inst/axil_response_addr_invalid_wr[6]/axil_response_addr_invalid_wr File: rtl/axil_interconnect.sv Line: 239
# ** Warning: (vsim-3015) [PCDPC] - Port size (8) does not match connection size (4) for port 's_axil_wstrb'. The port definition is at: rtl/axil_response_addr_invalid_wr.sv(20).
#    Time: 0 ns  Iteration: 0  Instance: /axil_interconnect_tb/axil_interconnect_wrapper_inst/axil_interconnect_inst/axil_response_addr_invalid_wr[6]/axil_response_addr_invalid_wr File: rtl/axil_interconnect.sv Line: 239
# ** Warning: (vsim-3015) [PCDPC] - Port size (32) does not match connection size (1) for port 's_axil_wdata'. The port definition is at: rtl/axil_response_addr_invalid_wr.sv(19).
#    Time: 0 ns  Iteration: 0  Instance: /axil_interconnect_tb/axil_interconnect_wrapper_inst/axil_interconnect_inst/axil_response_addr_invalid_wr[7]/axil_response_addr_invalid_wr File: rtl/axil_interconnect.sv Line: 239
# ** Warning: (vsim-3015) [PCDPC] - Port size (8) does not match connection size (4) for port 's_axil_wstrb'. The port definition is at: rtl/axil_response_addr_invalid_wr.sv(20).
#    Time: 0 ns  Iteration: 0  Instance: /axil_interconnect_tb/axil_interconnect_wrapper_inst/axil_interconnect_inst/axil_response_addr_invalid_wr[7]/axil_response_addr_invalid_wr File: rtl/axil_interconnect.sv Line: 239
# ** Warning: (vsim-3015) [PCDPC] - Port size (32) does not match connection size (1) for port 's_axil_wdata'. The port definition is at: rtl/axil_response_addr_invalid_wr.sv(19).
#    Time: 0 ns  Iteration: 0  Instance: /axil_interconnect_tb/axil_interconnect_wrapper_inst/axil_interconnect_inst/axil_response_addr_invalid_wr[8]/axil_response_addr_invalid_wr File: rtl/axil_interconnect.sv Line: 239
# ** Warning: (vsim-3015) [PCDPC] - Port size (8) does not match connection size (4) for port 's_axil_wstrb'. The port definition is at: rtl/axil_response_addr_invalid_wr.sv(20).
#    Time: 0 ns  Iteration: 0  Instance: /axil_interconnect_tb/axil_interconnect_wrapper_inst/axil_interconnect_inst/axil_response_addr_invalid_wr[8]/axil_response_addr_invalid_wr File: rtl/axil_interconnect.sv Line: 239
# ** Warning: (vsim-3015) [PCDPC] - Port size (32) does not match connection size (1) for port 's_axil_wdata'. The port definition is at: rtl/axil_response_addr_invalid_wr.sv(19).
#    Time: 0 ns  Iteration: 0  Instance: /axil_interconnect_tb/axil_interconnect_wrapper_inst/axil_interconnect_inst/axil_response_addr_invalid_wr[9]/axil_response_addr_invalid_wr File: rtl/axil_interconnect.sv Line: 239
# ** Warning: (vsim-3015) [PCDPC] - Port size (8) does not match connection size (4) for port 's_axil_wstrb'. The port definition is at: rtl/axil_response_addr_invalid_wr.sv(20).
#    Time: 0 ns  Iteration: 0  Instance: /axil_interconnect_tb/axil_interconnect_wrapper_inst/axil_interconnect_inst/axil_response_addr_invalid_wr[9]/axil_response_addr_invalid_wr File: rtl/axil_interconnect.sv Line: 239
# ** Warning: (vsim-3015) [PCDPC] - Port size (32) does not match connection size (1) for port 's_axil_wdata'. The port definition is at: rtl/axil_response_addr_invalid_wr.sv(19).
#    Time: 0 ns  Iteration: 0  Instance: /axil_interconnect_tb/axil_interconnect_wrapper_inst/axil_interconnect_inst/axil_response_addr_invalid_wr[10]/axil_response_addr_invalid_wr File: rtl/axil_interconnect.sv Line: 239
# ** Warning: (vsim-3015) [PCDPC] - Port size (8) does not match connection size (4) for port 's_axil_wstrb'. The port definition is at: rtl/axil_response_addr_invalid_wr.sv(20).
#    Time: 0 ns  Iteration: 0  Instance: /axil_interconnect_tb/axil_interconnect_wrapper_inst/axil_interconnect_inst/axil_response_addr_invalid_wr[10]/axil_response_addr_invalid_wr File: rtl/axil_interconnect.sv Line: 239
# ** Warning: (vsim-3015) [PCDPC] - Port size (32) does not match connection size (1) for port 's_axil_wdata'. The port definition is at: rtl/axil_response_addr_invalid_wr.sv(19).
#    Time: 0 ns  Iteration: 0  Instance: /axil_interconnect_tb/axil_interconnect_wrapper_inst/axil_interconnect_inst/axil_response_addr_invalid_wr[11]/axil_response_addr_invalid_wr File: rtl/axil_interconnect.sv Line: 239
# ** Warning: (vsim-3015) [PCDPC] - Port size (8) does not match connection size (4) for port 's_axil_wstrb'. The port definition is at: rtl/axil_response_addr_invalid_wr.sv(20).
#    Time: 0 ns  Iteration: 0  Instance: /axil_interconnect_tb/axil_interconnect_wrapper_inst/axil_interconnect_inst/axil_response_addr_invalid_wr[11]/axil_response_addr_invalid_wr File: rtl/axil_interconnect.sv Line: 239
# ** Warning: (vsim-3015) [PCDPC] - Port size (32) does not match connection size (1) for port 's_axil_wdata'. The port definition is at: rtl/axil_response_addr_invalid_wr.sv(19).
#    Time: 0 ns  Iteration: 0  Instance: /axil_interconnect_tb/axil_interconnect_wrapper_inst/axil_interconnect_inst/axil_response_addr_invalid_wr[12]/axil_response_addr_invalid_wr File: rtl/axil_interconnect.sv Line: 239
# ** Warning: (vsim-3015) [PCDPC] - Port size (8) does not match connection size (4) for port 's_axil_wstrb'. The port definition is at: rtl/axil_response_addr_invalid_wr.sv(20).
#    Time: 0 ns  Iteration: 0  Instance: /axil_interconnect_tb/axil_interconnect_wrapper_inst/axil_interconnect_inst/axil_response_addr_invalid_wr[12]/axil_response_addr_invalid_wr File: rtl/axil_interconnect.sv Line: 239
# ** Warning: (vsim-3015) [PCDPC] - Port size (32) does not match connection size (1) for port 's_axil_wdata'. The port definition is at: rtl/axil_response_addr_invalid_wr.sv(19).
#    Time: 0 ns  Iteration: 0  Instance: /axil_interconnect_tb/axil_interconnect_wrapper_inst/axil_interconnect_inst/axil_response_addr_invalid_wr[13]/axil_response_addr_invalid_wr File: rtl/axil_interconnect.sv Line: 239
# ** Warning: (vsim-3015) [PCDPC] - Port size (8) does not match connection size (4) for port 's_axil_wstrb'. The port definition is at: rtl/axil_response_addr_invalid_wr.sv(20).
#    Time: 0 ns  Iteration: 0  Instance: /axil_interconnect_tb/axil_interconnect_wrapper_inst/axil_interconnect_inst/axil_response_addr_invalid_wr[13]/axil_response_addr_invalid_wr File: rtl/axil_interconnect.sv Line: 239
# ** Warning: (vsim-3015) [PCDPC] - Port size (32) does not match connection size (1) for port 's_axil_wdata'. The port definition is at: rtl/axil_response_addr_invalid_wr.sv(19).
#    Time: 0 ns  Iteration: 0  Instance: /axil_interconnect_tb/axil_interconnect_wrapper_inst/axil_interconnect_inst/axil_response_addr_invalid_wr[14]/axil_response_addr_invalid_wr File: rtl/axil_interconnect.sv Line: 239
# ** Warning: (vsim-3015) [PCDPC] - Port size (8) does not match connection size (4) for port 's_axil_wstrb'. The port definition is at: rtl/axil_response_addr_invalid_wr.sv(20).
#    Time: 0 ns  Iteration: 0  Instance: /axil_interconnect_tb/axil_interconnect_wrapper_inst/axil_interconnect_inst/axil_response_addr_invalid_wr[14]/axil_response_addr_invalid_wr File: rtl/axil_interconnect.sv Line: 239
# ** Warning: (vsim-3015) [PCDPC] - Port size (32) does not match connection size (1) for port 's_axil_wdata'. The port definition is at: rtl/axil_response_addr_invalid_wr.sv(19).
#    Time: 0 ns  Iteration: 0  Instance: /axil_interconnect_tb/axil_interconnect_wrapper_inst/axil_interconnect_inst/axil_response_addr_invalid_wr[15]/axil_response_addr_invalid_wr File: rtl/axil_interconnect.sv Line: 239
# ** Warning: (vsim-3015) [PCDPC] - Port size (8) does not match connection size (4) for port 's_axil_wstrb'. The port definition is at: rtl/axil_response_addr_invalid_wr.sv(20).
#    Time: 0 ns  Iteration: 0  Instance: /axil_interconnect_tb/axil_interconnect_wrapper_inst/axil_interconnect_inst/axil_response_addr_invalid_wr[15]/axil_response_addr_invalid_wr File: rtl/axil_interconnect.sv Line: 239
# ** Warning: (vsim-3015) [PCDPC] - Port size (32) does not match connection size (1) for port 's_axil_wdata'. The port definition is at: rtl/axil_response_addr_invalid_wr.sv(19).
#    Time: 0 ns  Iteration: 0  Instance: /axil_interconnect_tb/axil_interconnect_wrapper_inst/axil_interconnect_inst/axil_response_addr_invalid_wr[16]/axil_response_addr_invalid_wr File: rtl/axil_interconnect.sv Line: 239
# ** Warning: (vsim-3015) [PCDPC] - Port size (8) does not match connection size (4) for port 's_axil_wstrb'. The port definition is at: rtl/axil_response_addr_invalid_wr.sv(20).
#    Time: 0 ns  Iteration: 0  Instance: /axil_interconnect_tb/axil_interconnect_wrapper_inst/axil_interconnect_inst/axil_response_addr_invalid_wr[16]/axil_response_addr_invalid_wr File: rtl/axil_interconnect.sv Line: 239
# ** Warning: (vsim-3015) [PCDPC] - Port size (32) does not match connection size (1) for port 's_axil_wdata'. The port definition is at: rtl/axil_response_addr_invalid_wr.sv(19).
#    Time: 0 ns  Iteration: 0  Instance: /axil_interconnect_tb/axil_interconnect_wrapper_inst/axil_interconnect_inst/axil_response_addr_invalid_wr[17]/axil_response_addr_invalid_wr File: rtl/axil_interconnect.sv Line: 239
# ** Warning: (vsim-3015) [PCDPC] - Port size (8) does not match connection size (4) for port 's_axil_wstrb'. The port definition is at: rtl/axil_response_addr_invalid_wr.sv(20).
#    Time: 0 ns  Iteration: 0  Instance: /axil_interconnect_tb/axil_interconnect_wrapper_inst/axil_interconnect_inst/axil_response_addr_invalid_wr[17]/axil_response_addr_invalid_wr File: rtl/axil_interconnect.sv Line: 239
# ** Warning: (vsim-3015) [PCDPC] - Port size (32) does not match connection size (1) for port 's_axil_wdata'. The port definition is at: rtl/axil_response_addr_invalid_wr.sv(19).
#    Time: 0 ns  Iteration: 0  Instance: /axil_interconnect_tb/axil_interconnect_wrapper_inst/axil_interconnect_inst/axil_response_addr_invalid_wr[18]/axil_response_addr_invalid_wr File: rtl/axil_interconnect.sv Line: 239
# ** Warning: (vsim-3015) [PCDPC] - Port size (8) does not match connection size (4) for port 's_axil_wstrb'. The port definition is at: rtl/axil_response_addr_invalid_wr.sv(20).
#    Time: 0 ns  Iteration: 0  Instance: /axil_interconnect_tb/axil_interconnect_wrapper_inst/axil_interconnect_inst/axil_response_addr_invalid_wr[18]/axil_response_addr_invalid_wr File: rtl/axil_interconnect.sv Line: 239
# ** Warning: (vsim-3015) [PCDPC] - Port size (32) does not match connection size (1) for port 's_axil_wdata'. The port definition is at: rtl/axil_response_addr_invalid_wr.sv(19).
#    Time: 0 ns  Iteration: 0  Instance: /axil_interconnect_tb/axil_interconnect_wrapper_inst/axil_interconnect_inst/axil_response_addr_invalid_wr[19]/axil_response_addr_invalid_wr File: rtl/axil_interconnect.sv Line: 239
# ** Warning: (vsim-3015) [PCDPC] - Port size (8) does not match connection size (4) for port 's_axil_wstrb'. The port definition is at: rtl/axil_response_addr_invalid_wr.sv(20).
#    Time: 0 ns  Iteration: 0  Instance: /axil_interconnect_tb/axil_interconnect_wrapper_inst/axil_interconnect_inst/axil_response_addr_invalid_wr[19]/axil_response_addr_invalid_wr File: rtl/axil_interconnect.sv Line: 239
# ** Warning: (vsim-3015) [PCDPC] - Port size (32) does not match connection size (1) for port 's_axil_wdata'. The port definition is at: rtl/axil_response_addr_invalid_wr.sv(19).
#    Time: 0 ns  Iteration: 0  Instance: /axil_interconnect_tb/axil_interconnect_wrapper_inst/axil_interconnect_inst/axil_response_addr_invalid_wr[20]/axil_response_addr_invalid_wr File: rtl/axil_interconnect.sv Line: 239
# ** Warning: (vsim-3015) [PCDPC] - Port size (8) does not match connection size (4) for port 's_axil_wstrb'. The port definition is at: rtl/axil_response_addr_invalid_wr.sv(20).
#    Time: 0 ns  Iteration: 0  Instance: /axil_interconnect_tb/axil_interconnect_wrapper_inst/axil_interconnect_inst/axil_response_addr_invalid_wr[20]/axil_response_addr_invalid_wr File: rtl/axil_interconnect.sv Line: 239
# ** Warning: (vsim-3015) [PCDPC] - Port size (32) does not match connection size (1) for port 's_axil_wdata'. The port definition is at: rtl/axil_response_addr_invalid_wr.sv(19).
#    Time: 0 ns  Iteration: 0  Instance: /axil_interconnect_tb/axil_interconnect_wrapper_inst/axil_interconnect_inst/axil_response_addr_invalid_wr[21]/axil_response_addr_invalid_wr File: rtl/axil_interconnect.sv Line: 239
# ** Warning: (vsim-3015) [PCDPC] - Port size (8) does not match connection size (4) for port 's_axil_wstrb'. The port definition is at: rtl/axil_response_addr_invalid_wr.sv(20).
#    Time: 0 ns  Iteration: 0  Instance: /axil_interconnect_tb/axil_interconnect_wrapper_inst/axil_interconnect_inst/axil_response_addr_invalid_wr[21]/axil_response_addr_invalid_wr File: rtl/axil_interconnect.sv Line: 239
# ** Warning: (vsim-3015) [PCDPC] - Port size (32) does not match connection size (1) for port 's_axil_wdata'. The port definition is at: rtl/axil_response_addr_invalid_wr.sv(19).
#    Time: 0 ns  Iteration: 0  Instance: /axil_interconnect_tb/axil_interconnect_wrapper_inst/axil_interconnect_inst/axil_response_addr_invalid_wr[22]/axil_response_addr_invalid_wr File: rtl/axil_interconnect.sv Line: 239
# ** Warning: (vsim-3015) [PCDPC] - Port size (8) does not match connection size (4) for port 's_axil_wstrb'. The port definition is at: rtl/axil_response_addr_invalid_wr.sv(20).
#    Time: 0 ns  Iteration: 0  Instance: /axil_interconnect_tb/axil_interconnect_wrapper_inst/axil_interconnect_inst/axil_response_addr_invalid_wr[22]/axil_response_addr_invalid_wr File: rtl/axil_interconnect.sv Line: 239
# ** Warning: (vsim-3015) [PCDPC] - Port size (32) does not match connection size (1) for port 's_axil_wdata'. The port definition is at: rtl/axil_response_addr_invalid_wr.sv(19).
#    Time: 0 ns  Iteration: 0  Instance: /axil_interconnect_tb/axil_interconnect_wrapper_inst/axil_interconnect_inst/axil_response_addr_invalid_wr[23]/axil_response_addr_invalid_wr File: rtl/axil_interconnect.sv Line: 239
# ** Warning: (vsim-3015) [PCDPC] - Port size (8) does not match connection size (4) for port 's_axil_wstrb'. The port definition is at: rtl/axil_response_addr_invalid_wr.sv(20).
#    Time: 0 ns  Iteration: 0  Instance: /axil_interconnect_tb/axil_interconnect_wrapper_inst/axil_interconnect_inst/axil_response_addr_invalid_wr[23]/axil_response_addr_invalid_wr File: rtl/axil_interconnect.sv Line: 239
# ** Warning: (vsim-3015) [PCDPC] - Port size (32) does not match connection size (1) for port 's_axil_wdata'. The port definition is at: rtl/axil_response_addr_invalid_wr.sv(19).
#    Time: 0 ns  Iteration: 0  Instance: /axil_interconnect_tb/axil_interconnect_wrapper_inst/axil_interconnect_inst/axil_response_addr_invalid_wr[24]/axil_response_addr_invalid_wr File: rtl/axil_interconnect.sv Line: 239
# ** Warning: (vsim-3015) [PCDPC] - Port size (8) does not match connection size (4) for port 's_axil_wstrb'. The port definition is at: rtl/axil_response_addr_invalid_wr.sv(20).
#    Time: 0 ns  Iteration: 0  Instance: /axil_interconnect_tb/axil_interconnect_wrapper_inst/axil_interconnect_inst/axil_response_addr_invalid_wr[24]/axil_response_addr_invalid_wr File: rtl/axil_interconnect.sv Line: 239
# ** Warning: (vsim-3015) [PCDPC] - Port size (32) does not match connection size (1) for port 's_axil_wdata'. The port definition is at: rtl/axil_response_addr_invalid_wr.sv(19).
#    Time: 0 ns  Iteration: 0  Instance: /axil_interconnect_tb/axil_interconnect_wrapper_inst/axil_interconnect_inst/axil_response_addr_invalid_wr[25]/axil_response_addr_invalid_wr File: rtl/axil_interconnect.sv Line: 239
# ** Warning: (vsim-3015) [PCDPC] - Port size (8) does not match connection size (4) for port 's_axil_wstrb'. The port definition is at: rtl/axil_response_addr_invalid_wr.sv(20).
#    Time: 0 ns  Iteration: 0  Instance: /axil_interconnect_tb/axil_interconnect_wrapper_inst/axil_interconnect_inst/axil_response_addr_invalid_wr[25]/axil_response_addr_invalid_wr File: rtl/axil_interconnect.sv Line: 239
# ** Warning: (vsim-3015) [PCDPC] - Port size (32) does not match connection size (1) for port 's_axil_wdata'. The port definition is at: rtl/axil_response_addr_invalid_wr.sv(19).
#    Time: 0 ns  Iteration: 0  Instance: /axil_interconnect_tb/axil_interconnect_wrapper_inst/axil_interconnect_inst/axil_response_addr_invalid_wr[26]/axil_response_addr_invalid_wr File: rtl/axil_interconnect.sv Line: 239
# ** Warning: (vsim-3015) [PCDPC] - Port size (8) does not match connection size (4) for port 's_axil_wstrb'. The port definition is at: rtl/axil_response_addr_invalid_wr.sv(20).
#    Time: 0 ns  Iteration: 0  Instance: /axil_interconnect_tb/axil_interconnect_wrapper_inst/axil_interconnect_inst/axil_response_addr_invalid_wr[26]/axil_response_addr_invalid_wr File: rtl/axil_interconnect.sv Line: 239
# ** Warning: (vsim-3015) [PCDPC] - Port size (32) does not match connection size (1) for port 's_axil_wdata'. The port definition is at: rtl/axil_response_addr_invalid_wr.sv(19).
#    Time: 0 ns  Iteration: 0  Instance: /axil_interconnect_tb/axil_interconnect_wrapper_inst/axil_interconnect_inst/axil_response_addr_invalid_wr[27]/axil_response_addr_invalid_wr File: rtl/axil_interconnect.sv Line: 239
# ** Warning: (vsim-3015) [PCDPC] - Port size (8) does not match connection size (4) for port 's_axil_wstrb'. The port definition is at: rtl/axil_response_addr_invalid_wr.sv(20).
#    Time: 0 ns  Iteration: 0  Instance: /axil_interconnect_tb/axil_interconnect_wrapper_inst/axil_interconnect_inst/axil_response_addr_invalid_wr[27]/axil_response_addr_invalid_wr File: rtl/axil_interconnect.sv Line: 239
# ** Warning: (vsim-3015) [PCDPC] - Port size (32) does not match connection size (1) for port 's_axil_wdata'. The port definition is at: rtl/axil_response_addr_invalid_wr.sv(19).
#    Time: 0 ns  Iteration: 0  Instance: /axil_interconnect_tb/axil_interconnect_wrapper_inst/axil_interconnect_inst/axil_response_addr_invalid_wr[28]/axil_response_addr_invalid_wr File: rtl/axil_interconnect.sv Line: 239
# ** Warning: (vsim-3015) [PCDPC] - Port size (8) does not match connection size (4) for port 's_axil_wstrb'. The port definition is at: rtl/axil_response_addr_invalid_wr.sv(20).
#    Time: 0 ns  Iteration: 0  Instance: /axil_interconnect_tb/axil_interconnect_wrapper_inst/axil_interconnect_inst/axil_response_addr_invalid_wr[28]/axil_response_addr_invalid_wr File: rtl/axil_interconnect.sv Line: 239
# ** Warning: (vsim-3015) [PCDPC] - Port size (32) does not match connection size (1) for port 's_axil_wdata'. The port definition is at: rtl/axil_response_addr_invalid_wr.sv(19).
#    Time: 0 ns  Iteration: 0  Instance: /axil_interconnect_tb/axil_interconnect_wrapper_inst/axil_interconnect_inst/axil_response_addr_invalid_wr[29]/axil_response_addr_invalid_wr File: rtl/axil_interconnect.sv Line: 239
# ** Warning: (vsim-3015) [PCDPC] - Port size (8) does not match connection size (4) for port 's_axil_wstrb'. The port definition is at: rtl/axil_response_addr_invalid_wr.sv(20).
#    Time: 0 ns  Iteration: 0  Instance: /axil_interconnect_tb/axil_interconnect_wrapper_inst/axil_interconnect_inst/axil_response_addr_invalid_wr[29]/axil_response_addr_invalid_wr File: rtl/axil_interconnect.sv Line: 239
# ** Warning: (vsim-3015) [PCDPC] - Port size (32) does not match connection size (1) for port 's_axil_wdata'. The port definition is at: rtl/axil_response_addr_invalid_wr.sv(19).
#    Time: 0 ns  Iteration: 0  Instance: /axil_interconnect_tb/axil_interconnect_wrapper_inst/axil_interconnect_inst/axil_response_addr_invalid_wr[30]/axil_response_addr_invalid_wr File: rtl/axil_interconnect.sv Line: 239
# ** Warning: (vsim-3015) [PCDPC] - Port size (8) does not match connection size (4) for port 's_axil_wstrb'. The port definition is at: rtl/axil_response_addr_invalid_wr.sv(20).
#    Time: 0 ns  Iteration: 0  Instance: /axil_interconnect_tb/axil_interconnect_wrapper_inst/axil_interconnect_inst/axil_response_addr_invalid_wr[30]/axil_response_addr_invalid_wr File: rtl/axil_interconnect.sv Line: 239
# ** Warning: (vsim-3015) [PCDPC] - Port size (32) does not match connection size (1) for port 's_axil_wdata'. The port definition is at: rtl/axil_response_addr_invalid_wr.sv(19).
#    Time: 0 ns  Iteration: 0  Instance: /axil_interconnect_tb/axil_interconnect_wrapper_inst/axil_interconnect_inst/axil_response_addr_invalid_wr[31]/axil_response_addr_invalid_wr File: rtl/axil_interconnect.sv Line: 239
# ** Warning: (vsim-3015) [PCDPC] - Port size (8) does not match connection size (4) for port 's_axil_wstrb'. The port definition is at: rtl/axil_response_addr_invalid_wr.sv(20).
#    Time: 0 ns  Iteration: 0  Instance: /axil_interconnect_tb/axil_interconnect_wrapper_inst/axil_interconnect_inst/axil_response_addr_invalid_wr[31]/axil_response_addr_invalid_wr File: rtl/axil_interconnect.sv Line: 239
# 
# Add signals to the waveform window
# add wave -radix binary              axil_interconnect_tb/axil_interconnect_wrapper_inst/aclk
# add wave -radix binary              axil_interconnect_tb/axil_interconnect_wrapper_inst/aresetn
# 
# Loop to add master write signals
# for {set i 0} {$i < $NUMBER_MASTER} {incr i} {
#     add wave -radix binary          axil_interconnect_tb/axil_interconnect_wrapper_inst/axil_interconnect_inst/axil_response_addr_invalid_wr[$i]/axil_response_addr_invalid_wr/slv_invalid
# 	add wave -radix hexadecimal 	axil_interconnect_tb/axil_interconnect_wrapper_inst/m_axil_awaddr[$i]
#     add wave -radix binary 		    axil_interconnect_tb/axil_interconnect_wrapper_inst/m_axil_awvalid[$i]
#     add wave -radix binary 		    axil_interconnect_tb/axil_interconnect_wrapper_inst/m_axil_awready[$i]
# 
#     add wave -radix hexadecimal     axil_interconnect_tb/axil_interconnect_wrapper_inst/m_axil_wdata[$i]
#     add wave -radix hexadecimal     axil_interconnect_tb/axil_interconnect_wrapper_inst/m_axil_wstrb[$i]
#     add wave -radix binary          axil_interconnect_tb/axil_interconnect_wrapper_inst/m_axil_wvalid[$i]
#     add wave -radix binary          axil_interconnect_tb/axil_interconnect_wrapper_inst/m_axil_wready[$i]
# 
#     add wave -radix hexadecimal     axil_interconnect_tb/axil_interconnect_wrapper_inst/m_axil_bresp[$i]
#     add wave -radix binary          axil_interconnect_tb/axil_interconnect_wrapper_inst/m_axil_bvalid[$i]
#     add wave -radix binary          axil_interconnect_tb/axil_interconnect_wrapper_inst/m_axil_bready[$i]
# }
# 
# Loop to add slave write signals
# for {set j 0} {$j < $NUMBER_SLAVE} {incr j} {
#     add wave -radix hexadecimal     axil_interconnect_tb/axil_interconnect_wrapper_inst/s_axil_awaddr[$j]
#     add wave -radix binary          axil_interconnect_tb/axil_interconnect_wrapper_inst/s_axil_awvalid[$j]
#     add wave -radix binary          axil_interconnect_tb/axil_interconnect_wrapper_inst/s_axil_awready[$j]  
#     add wave -radix hexadecimal     axil_interconnect_tb/axil_interconnect_wrapper_inst/s_axil_wdata[$j]
#     add wave -radix hexadecimal     axil_interconnect_tb/axil_interconnect_wrapper_inst/s_axil_wstrb[$j]
#     add wave -radix binary          axil_interconnect_tb/axil_interconnect_wrapper_inst/s_axil_wvalid[$j]
#     add wave -radix binary          axil_interconnect_tb/axil_interconnect_wrapper_inst/s_axil_wready[$j]   
#     add wave -radix hexadecimal     axil_interconnect_tb/axil_interconnect_wrapper_inst/s_axil_bresp[$j]
#     add wave -radix binary          axil_interconnect_tb/axil_interconnect_wrapper_inst/s_axil_bvalid[$j]
#     add wave -radix binary          axil_interconnect_tb/axil_interconnect_wrapper_inst/s_axil_bready[$j]
# }
# 
# Loop to add master read signals
# for {set i 0} {$i < $NUMBER_MASTER} {incr i} {
# 	add wave -radix hexadecimal 	axil_interconnect_tb/axil_interconnect_wrapper_inst/m_axil_araddr[$i]
#     add wave -radix binary 		    axil_interconnect_tb/axil_interconnect_wrapper_inst/m_axil_arvalid[$i]
#     add wave -radix binary 		    axil_interconnect_tb/axil_interconnect_wrapper_inst/m_axil_arready[$i]
# 
#     add wave -radix hexadecimal     axil_interconnect_tb/axil_interconnect_wrapper_inst/m_axil_rdata[$i]
#     add wave -radix binary          axil_interconnect_tb/axil_interconnect_wrapper_inst/m_axil_rvalid[$i]
#     add wave -radix binary          axil_interconnect_tb/axil_interconnect_wrapper_inst/m_axil_rready[$i]
#     add wave -radix hexadecimal     axil_interconnect_tb/axil_interconnect_wrapper_inst/m_axil_rresp[$i]
# }
# 
# Loop to add slave read signals
# for {set j 0} {$j < $NUMBER_SLAVE} {incr j} {
#     add wave -radix hexadecimal     axil_interconnect_tb/axil_interconnect_wrapper_inst/s_axil_araddr[$j]
#     add wave -radix binary          axil_interconnect_tb/axil_interconnect_wrapper_inst/s_axil_arvalid[$j]
#     add wave -radix binary          axil_interconnect_tb/axil_interconnect_wrapper_inst/s_axil_arready[$j]
# 
#     add wave -radix hexadecimal     axil_interconnect_tb/axil_interconnect_wrapper_inst/s_axil_rdata[$j]
#     add wave -radix binary          axil_interconnect_tb/axil_interconnect_wrapper_inst/s_axil_rvalid[$j]
#     add wave -radix binary          axil_interconnect_tb/axil_interconnect_wrapper_inst/s_axil_rready[$j]
#     add wave -radix hexadecimal     axil_interconnect_tb/axil_interconnect_wrapper_inst/s_axil_rresp[$j]
# }
# 
# Run the simulation for the specified time
# run 1ms
# 
# Zoom out to show all waveform data
# wave zoom full
# 0 ns
# 1050 us
do tb/vsim/vsim.do
# Enable transcript logging
# transcript on
# 
# Create the work library
# vlib work
# ** Warning: (vlib-34) Library already exists at "work".
# Errors: 0, Warnings: 1
# 
# Compile the packages
# vlog -sv tb/pkg_tb.sv
# Questa Intel Starter FPGA Edition-64 vlog 2021.2 Compiler 2021.04 Apr 14 2021
# Start time: 04:41:46 on Jul 28,2024
# vlog -reportprogress 300 -sv tb/pkg_tb.sv 
# -- Compiling package pkg_tb
# 
# Top level modules:
# 	--none--
# End time: 04:41:46 on Jul 28,2024, Elapsed time: 0:00:00
# Errors: 0, Warnings: 0
# 
# Compile the design and testbench
# vlog -sv rtl/axil_decoder_addr_wr.sv
# Questa Intel Starter FPGA Edition-64 vlog 2021.2 Compiler 2021.04 Apr 14 2021
# Start time: 04:41:46 on Jul 28,2024
# vlog -reportprogress 300 -sv rtl/axil_decoder_addr_wr.sv 
# -- Compiling module axil_decoder_addr_wr
# ** Error: rtl/axil_decoder_addr_wr.sv(44): (vlog-2730) Undefined variable: 'slv_valid_wire'.
# ** Error: rtl/axil_decoder_addr_wr.sv(44): (vlog-2730) Undefined variable: 'm_axil_arvalid'.
# ** Error: rtl/axil_decoder_addr_wr.sv(44): (vlog-2730) Undefined variable: 'addr_wire'.
# End time: 04:41:46 on Jul 28,2024, Elapsed time: 0:00:00
# Errors: 3, Warnings: 0
# ** Error: /home/maxim/Quartus/questa_fse/linux_x86_64/vlog failed.
# Error in macro ./tb/vsim/vsim.do line 11
# /home/maxim/Quartus/questa_fse/linux_x86_64/vlog failed.
#     while executing
# "vlog -sv rtl/axil_decoder_addr_wr.sv"
do tb/vsim/vsim.do
# Enable transcript logging
# transcript on
# 
# Create the work library
# vlib work
# ** Warning: (vlib-34) Library already exists at "work".
# Errors: 0, Warnings: 1
# 
# Compile the packages
# vlog -sv tb/pkg_tb.sv
# Questa Intel Starter FPGA Edition-64 vlog 2021.2 Compiler 2021.04 Apr 14 2021
# Start time: 04:42:10 on Jul 28,2024
# vlog -reportprogress 300 -sv tb/pkg_tb.sv 
# -- Compiling package pkg_tb
# 
# Top level modules:
# 	--none--
# End time: 04:42:10 on Jul 28,2024, Elapsed time: 0:00:00
# Errors: 0, Warnings: 0
# 
# Compile the design and testbench
# vlog -sv rtl/axil_decoder_addr_wr.sv
# Questa Intel Starter FPGA Edition-64 vlog 2021.2 Compiler 2021.04 Apr 14 2021
# Start time: 04:42:10 on Jul 28,2024
# vlog -reportprogress 300 -sv rtl/axil_decoder_addr_wr.sv 
# -- Compiling module axil_decoder_addr_wr
# ** Error: rtl/axil_decoder_addr_wr.sv(44): (vlog-2730) Undefined variable: 'm_axil_arvalid'.
# ** Error: rtl/axil_decoder_addr_wr.sv(44): (vlog-2730) Undefined variable: 'addr_wire'.
# End time: 04:42:10 on Jul 28,2024, Elapsed time: 0:00:00
# Errors: 2, Warnings: 0
# ** Error: /home/maxim/Quartus/questa_fse/linux_x86_64/vlog failed.
# Error in macro ./tb/vsim/vsim.do line 11
# /home/maxim/Quartus/questa_fse/linux_x86_64/vlog failed.
#     while executing
# "vlog -sv rtl/axil_decoder_addr_wr.sv"
do tb/vsim/vsim.do
# Enable transcript logging
# transcript on
# 
# Create the work library
# vlib work
# ** Warning: (vlib-34) Library already exists at "work".
# Errors: 0, Warnings: 1
# 
# Compile the packages
# vlog -sv tb/pkg_tb.sv
# Questa Intel Starter FPGA Edition-64 vlog 2021.2 Compiler 2021.04 Apr 14 2021
# Start time: 04:47:16 on Jul 28,2024
# vlog -reportprogress 300 -sv tb/pkg_tb.sv 
# -- Compiling package pkg_tb
# 
# Top level modules:
# 	--none--
# End time: 04:47:17 on Jul 28,2024, Elapsed time: 0:00:01
# Errors: 0, Warnings: 0
# 
# Compile the design and testbench
# vlog -sv rtl/axil_decoder_addr_wr.sv
# Questa Intel Starter FPGA Edition-64 vlog 2021.2 Compiler 2021.04 Apr 14 2021
# Start time: 04:47:17 on Jul 28,2024
# vlog -reportprogress 300 -sv rtl/axil_decoder_addr_wr.sv 
# -- Compiling module axil_decoder_addr_wr
# 
# Top level modules:
# 	axil_decoder_addr_wr
# End time: 04:47:17 on Jul 28,2024, Elapsed time: 0:00:00
# Errors: 0, Warnings: 0
# vlog -sv rtl/axil_mux_wr.sv
# Questa Intel Starter FPGA Edition-64 vlog 2021.2 Compiler 2021.04 Apr 14 2021
# Start time: 04:47:17 on Jul 28,2024
# vlog -reportprogress 300 -sv rtl/axil_mux_wr.sv 
# -- Compiling module axil_mux_wr
# 
# Top level modules:
# 	axil_mux_wr
# End time: 04:47:17 on Jul 28,2024, Elapsed time: 0:00:00
# Errors: 0, Warnings: 0
# vlog -sv rtl/axil_response_addr_invalid_wr.sv
# Questa Intel Starter FPGA Edition-64 vlog 2021.2 Compiler 2021.04 Apr 14 2021
# Start time: 04:47:17 on Jul 28,2024
# vlog -reportprogress 300 -sv rtl/axil_response_addr_invalid_wr.sv 
# -- Compiling module axil_response_addr_invalid_wr
# 
# Top level modules:
# 	axil_response_addr_invalid_wr
# End time: 04:47:17 on Jul 28,2024, Elapsed time: 0:00:00
# Errors: 0, Warnings: 0
# vlog -sv rtl/axil_arbiter_priority_wr.sv
# Questa Intel Starter FPGA Edition-64 vlog 2021.2 Compiler 2021.04 Apr 14 2021
# Start time: 04:47:17 on Jul 28,2024
# vlog -reportprogress 300 -sv rtl/axil_arbiter_priority_wr.sv 
# -- Compiling module axil_arbiter_priority_wr
# 
# Top level modules:
# 	axil_arbiter_priority_wr
# End time: 04:47:17 on Jul 28,2024, Elapsed time: 0:00:00
# Errors: 0, Warnings: 0
# vlog -sv rtl/axil_crossbar_ms_wr.sv
# Questa Intel Starter FPGA Edition-64 vlog 2021.2 Compiler 2021.04 Apr 14 2021
# Start time: 04:47:17 on Jul 28,2024
# vlog -reportprogress 300 -sv rtl/axil_crossbar_ms_wr.sv 
# -- Compiling module axil_crossbar_ms_wr
# ** Warning: rtl/axil_crossbar_ms_wr.sv(15): (vlog-13314) Defaulting port 'm_axil_awaddr' kind to 'var' rather than 'wire' due to default compile option setting of -svinputport=relaxed.
# ** Warning: rtl/axil_crossbar_ms_wr.sv(19): (vlog-13314) Defaulting port 'm_axil_wdata' kind to 'var' rather than 'wire' due to default compile option setting of -svinputport=relaxed.
# ** Warning: rtl/axil_crossbar_ms_wr.sv(20): (vlog-13314) Defaulting port 'm_axil_wstrb' kind to 'var' rather than 'wire' due to default compile option setting of -svinputport=relaxed.
# 
# Top level modules:
# 	axil_crossbar_ms_wr
# End time: 04:47:17 on Jul 28,2024, Elapsed time: 0:00:00
# Errors: 0, Warnings: 3
# vlog -sv rtl/axil_crossbar_sm_wr.sv
# Questa Intel Starter FPGA Edition-64 vlog 2021.2 Compiler 2021.04 Apr 14 2021
# Start time: 04:47:17 on Jul 28,2024
# vlog -reportprogress 300 -sv rtl/axil_crossbar_sm_wr.sv 
# -- Compiling module axil_crossbar_sm_wr
# ** Warning: rtl/axil_crossbar_sm_wr.sv(35): (vlog-13314) Defaulting port 's_axil_bresp' kind to 'var' rather than 'wire' due to default compile option setting of -svinputport=relaxed.
# 
# Top level modules:
# 	axil_crossbar_sm_wr
# End time: 04:47:17 on Jul 28,2024, Elapsed time: 0:00:00
# Errors: 0, Warnings: 1
# vlog -sv rtl/axil_decoder_addr_rd.sv
# Questa Intel Starter FPGA Edition-64 vlog 2021.2 Compiler 2021.04 Apr 14 2021
# Start time: 04:47:17 on Jul 28,2024
# vlog -reportprogress 300 -sv rtl/axil_decoder_addr_rd.sv 
# -- Compiling module axil_decoder_addr_rd
# 
# Top level modules:
# 	axil_decoder_addr_rd
# End time: 04:47:17 on Jul 28,2024, Elapsed time: 0:00:00
# Errors: 0, Warnings: 0
# vlog -sv rtl/axil_arbiter_priority_rd.sv
# Questa Intel Starter FPGA Edition-64 vlog 2021.2 Compiler 2021.04 Apr 14 2021
# Start time: 04:47:17 on Jul 28,2024
# vlog -reportprogress 300 -sv rtl/axil_arbiter_priority_rd.sv 
# -- Compiling module axil_arbiter_priority_rd
# 
# Top level modules:
# 	axil_arbiter_priority_rd
# End time: 04:47:17 on Jul 28,2024, Elapsed time: 0:00:00
# Errors: 0, Warnings: 0
# vlog -sv rtl/axil_crossbar_ms_rd.sv
# Questa Intel Starter FPGA Edition-64 vlog 2021.2 Compiler 2021.04 Apr 14 2021
# Start time: 04:47:17 on Jul 28,2024
# vlog -reportprogress 300 -sv rtl/axil_crossbar_ms_rd.sv 
# -- Compiling module axil_crossbar_ms_rd
# ** Warning: rtl/axil_crossbar_ms_rd.sv(15): (vlog-13314) Defaulting port 'm_axil_araddr' kind to 'var' rather than 'wire' due to default compile option setting of -svinputport=relaxed.
# 
# Top level modules:
# 	axil_crossbar_ms_rd
# End time: 04:47:17 on Jul 28,2024, Elapsed time: 0:00:00
# Errors: 0, Warnings: 1
# vlog -sv rtl/axil_crossbar_sm_rd.sv
# Questa Intel Starter FPGA Edition-64 vlog 2021.2 Compiler 2021.04 Apr 14 2021
# Start time: 04:47:17 on Jul 28,2024
# vlog -reportprogress 300 -sv rtl/axil_crossbar_sm_rd.sv 
# -- Compiling module axil_crossbar_sm_rd
# ** Warning: rtl/axil_crossbar_sm_rd.sv(30): (vlog-13314) Defaulting port 's_axil_rdata' kind to 'var' rather than 'wire' due to default compile option setting of -svinputport=relaxed.
# ** Warning: rtl/axil_crossbar_sm_rd.sv(31): (vlog-13314) Defaulting port 's_axil_rresp' kind to 'var' rather than 'wire' due to default compile option setting of -svinputport=relaxed.
# 
# Top level modules:
# 	axil_crossbar_sm_rd
# End time: 04:47:17 on Jul 28,2024, Elapsed time: 0:00:00
# Errors: 0, Warnings: 2
# vlog -sv rtl/axil_interconnect.sv
# Questa Intel Starter FPGA Edition-64 vlog 2021.2 Compiler 2021.04 Apr 14 2021
# Start time: 04:47:17 on Jul 28,2024
# vlog -reportprogress 300 -sv rtl/axil_interconnect.sv 
# -- Compiling module axil_interconnect
# ** Warning: rtl/axil_interconnect.sv(21): (vlog-13314) Defaulting port 'm_axil_awaddr' kind to 'var' rather than 'wire' due to default compile option setting of -svinputport=relaxed.
# ** Warning: rtl/axil_interconnect.sv(26): (vlog-13314) Defaulting port 'm_axil_wdata' kind to 'var' rather than 'wire' due to default compile option setting of -svinputport=relaxed.
# ** Warning: rtl/axil_interconnect.sv(27): (vlog-13314) Defaulting port 'm_axil_wstrb' kind to 'var' rather than 'wire' due to default compile option setting of -svinputport=relaxed.
# ** Warning: rtl/axil_interconnect.sv(52): (vlog-13314) Defaulting port 's_axil_bresp' kind to 'var' rather than 'wire' due to default compile option setting of -svinputport=relaxed.
# ** Warning: rtl/axil_interconnect.sv(61): (vlog-13314) Defaulting port 'm_axil_araddr' kind to 'var' rather than 'wire' due to default compile option setting of -svinputport=relaxed.
# ** Warning: rtl/axil_interconnect.sv(81): (vlog-13314) Defaulting port 's_axil_rdata' kind to 'var' rather than 'wire' due to default compile option setting of -svinputport=relaxed.
# ** Warning: rtl/axil_interconnect.sv(82): (vlog-13314) Defaulting port 's_axil_rresp' kind to 'var' rather than 'wire' due to default compile option setting of -svinputport=relaxed.
# 
# Top level modules:
# 	axil_interconnect
# End time: 04:47:17 on Jul 28,2024, Elapsed time: 0:00:00
# Errors: 0, Warnings: 7
# vlog -sv rtl/axil_interconnect_wrapper.sv
# Questa Intel Starter FPGA Edition-64 vlog 2021.2 Compiler 2021.04 Apr 14 2021
# Start time: 04:47:17 on Jul 28,2024
# vlog -reportprogress 300 -sv rtl/axil_interconnect_wrapper.sv 
# -- Compiling module axil_interconnect_wrapper
# ** Warning: rtl/axil_interconnect_wrapper.sv(24): (vlog-13314) Defaulting port 'm_axil_awaddr' kind to 'var' rather than 'wire' due to default compile option setting of -svinputport=relaxed.
# ** Warning: rtl/axil_interconnect_wrapper.sv(29): (vlog-13314) Defaulting port 'm_axil_wdata' kind to 'var' rather than 'wire' due to default compile option setting of -svinputport=relaxed.
# ** Warning: rtl/axil_interconnect_wrapper.sv(30): (vlog-13314) Defaulting port 'm_axil_wstrb' kind to 'var' rather than 'wire' due to default compile option setting of -svinputport=relaxed.
# ** Warning: rtl/axil_interconnect_wrapper.sv(55): (vlog-13314) Defaulting port 's_axil_bresp' kind to 'var' rather than 'wire' due to default compile option setting of -svinputport=relaxed.
# ** Warning: rtl/axil_interconnect_wrapper.sv(64): (vlog-13314) Defaulting port 'm_axil_araddr' kind to 'var' rather than 'wire' due to default compile option setting of -svinputport=relaxed.
# ** Warning: rtl/axil_interconnect_wrapper.sv(84): (vlog-13314) Defaulting port 's_axil_rdata' kind to 'var' rather than 'wire' due to default compile option setting of -svinputport=relaxed.
# ** Warning: rtl/axil_interconnect_wrapper.sv(85): (vlog-13314) Defaulting port 's_axil_rresp' kind to 'var' rather than 'wire' due to default compile option setting of -svinputport=relaxed.
# 
# Top level modules:
# 	axil_interconnect_wrapper
# End time: 04:47:17 on Jul 28,2024, Elapsed time: 0:00:00
# Errors: 0, Warnings: 7
# vlog -sv tb/axil_interconnect_tb.sv
# Questa Intel Starter FPGA Edition-64 vlog 2021.2 Compiler 2021.04 Apr 14 2021
# Start time: 04:47:17 on Jul 28,2024
# vlog -reportprogress 300 -sv tb/axil_interconnect_tb.sv 
# -- Compiling module axil_interconnect_tb
# -- Importing package pkg_tb
# 
# Top level modules:
# 	axil_interconnect_tb
# End time: 04:47:17 on Jul 28,2024, Elapsed time: 0:00:00
# Errors: 0, Warnings: 0
# 
# Set the number of master and slave interfaces
# set NUMBER_MASTER   32
# 32
# set NUMBER_SLAVE    16
# 16
# 
# Simulate the testbench
# vsim -t 1ns -L altera_mf_ver -voptargs="+acc" axil_interconnect_tb
# End time: 04:47:18 on Jul 28,2024, Elapsed time: 0:07:29
# Errors: 34, Warnings: 181
# vsim -t 1ns -L altera_mf_ver -voptargs=""+acc"" axil_interconnect_tb 
# Start time: 04:47:18 on Jul 28,2024
# ** Note: (vsim-3813) Design is being optimized due to module recompilation...
# Loading sv_std.std
# Loading work.pkg_tb(fast)
# Loading work.axil_interconnect_tb(fast)
# Loading work.axil_interconnect_wrapper(fast)
# Loading work.axil_interconnect(fast)
# Loading work.axil_decoder_addr_wr(fast)
# Loading work.axil_mux_wr(fast)
# Loading work.axil_response_addr_invalid_wr(fast)
# Loading work.axil_arbiter_priority_wr(fast)
# Loading work.axil_crossbar_ms_wr(fast)
# Loading work.axil_crossbar_sm_wr(fast)
# Loading work.axil_decoder_addr_rd(fast)
# Loading work.axil_arbiter_priority_rd(fast)
# Loading work.axil_crossbar_ms_rd(fast)
# Loading work.axil_crossbar_sm_rd(fast)
# ** Warning: (vsim-3015) [PCDPC] - Port size (32) does not match connection size (1) for port 's_axil_wdata'. The port definition is at: rtl/axil_response_addr_invalid_wr.sv(19).
#    Time: 0 ns  Iteration: 0  Instance: /axil_interconnect_tb/axil_interconnect_wrapper_inst/axil_interconnect_inst/axil_response_addr_invalid_wr[0]/axil_response_addr_invalid_wr File: rtl/axil_interconnect.sv Line: 239
# ** Warning: (vsim-3015) [PCDPC] - Port size (8) does not match connection size (4) for port 's_axil_wstrb'. The port definition is at: rtl/axil_response_addr_invalid_wr.sv(20).
#    Time: 0 ns  Iteration: 0  Instance: /axil_interconnect_tb/axil_interconnect_wrapper_inst/axil_interconnect_inst/axil_response_addr_invalid_wr[0]/axil_response_addr_invalid_wr File: rtl/axil_interconnect.sv Line: 239
# ** Warning: (vsim-3015) [PCDPC] - Port size (32) does not match connection size (1) for port 's_axil_wdata'. The port definition is at: rtl/axil_response_addr_invalid_wr.sv(19).
#    Time: 0 ns  Iteration: 0  Instance: /axil_interconnect_tb/axil_interconnect_wrapper_inst/axil_interconnect_inst/axil_response_addr_invalid_wr[1]/axil_response_addr_invalid_wr File: rtl/axil_interconnect.sv Line: 239
# ** Warning: (vsim-3015) [PCDPC] - Port size (8) does not match connection size (4) for port 's_axil_wstrb'. The port definition is at: rtl/axil_response_addr_invalid_wr.sv(20).
#    Time: 0 ns  Iteration: 0  Instance: /axil_interconnect_tb/axil_interconnect_wrapper_inst/axil_interconnect_inst/axil_response_addr_invalid_wr[1]/axil_response_addr_invalid_wr File: rtl/axil_interconnect.sv Line: 239
# ** Warning: (vsim-3015) [PCDPC] - Port size (32) does not match connection size (1) for port 's_axil_wdata'. The port definition is at: rtl/axil_response_addr_invalid_wr.sv(19).
#    Time: 0 ns  Iteration: 0  Instance: /axil_interconnect_tb/axil_interconnect_wrapper_inst/axil_interconnect_inst/axil_response_addr_invalid_wr[2]/axil_response_addr_invalid_wr File: rtl/axil_interconnect.sv Line: 239
# ** Warning: (vsim-3015) [PCDPC] - Port size (8) does not match connection size (4) for port 's_axil_wstrb'. The port definition is at: rtl/axil_response_addr_invalid_wr.sv(20).
#    Time: 0 ns  Iteration: 0  Instance: /axil_interconnect_tb/axil_interconnect_wrapper_inst/axil_interconnect_inst/axil_response_addr_invalid_wr[2]/axil_response_addr_invalid_wr File: rtl/axil_interconnect.sv Line: 239
# ** Warning: (vsim-3015) [PCDPC] - Port size (32) does not match connection size (1) for port 's_axil_wdata'. The port definition is at: rtl/axil_response_addr_invalid_wr.sv(19).
#    Time: 0 ns  Iteration: 0  Instance: /axil_interconnect_tb/axil_interconnect_wrapper_inst/axil_interconnect_inst/axil_response_addr_invalid_wr[3]/axil_response_addr_invalid_wr File: rtl/axil_interconnect.sv Line: 239
# ** Warning: (vsim-3015) [PCDPC] - Port size (8) does not match connection size (4) for port 's_axil_wstrb'. The port definition is at: rtl/axil_response_addr_invalid_wr.sv(20).
#    Time: 0 ns  Iteration: 0  Instance: /axil_interconnect_tb/axil_interconnect_wrapper_inst/axil_interconnect_inst/axil_response_addr_invalid_wr[3]/axil_response_addr_invalid_wr File: rtl/axil_interconnect.sv Line: 239
# ** Warning: (vsim-3015) [PCDPC] - Port size (32) does not match connection size (1) for port 's_axil_wdata'. The port definition is at: rtl/axil_response_addr_invalid_wr.sv(19).
#    Time: 0 ns  Iteration: 0  Instance: /axil_interconnect_tb/axil_interconnect_wrapper_inst/axil_interconnect_inst/axil_response_addr_invalid_wr[4]/axil_response_addr_invalid_wr File: rtl/axil_interconnect.sv Line: 239
# ** Warning: (vsim-3015) [PCDPC] - Port size (8) does not match connection size (4) for port 's_axil_wstrb'. The port definition is at: rtl/axil_response_addr_invalid_wr.sv(20).
#    Time: 0 ns  Iteration: 0  Instance: /axil_interconnect_tb/axil_interconnect_wrapper_inst/axil_interconnect_inst/axil_response_addr_invalid_wr[4]/axil_response_addr_invalid_wr File: rtl/axil_interconnect.sv Line: 239
# ** Warning: (vsim-3015) [PCDPC] - Port size (32) does not match connection size (1) for port 's_axil_wdata'. The port definition is at: rtl/axil_response_addr_invalid_wr.sv(19).
#    Time: 0 ns  Iteration: 0  Instance: /axil_interconnect_tb/axil_interconnect_wrapper_inst/axil_interconnect_inst/axil_response_addr_invalid_wr[5]/axil_response_addr_invalid_wr File: rtl/axil_interconnect.sv Line: 239
# ** Warning: (vsim-3015) [PCDPC] - Port size (8) does not match connection size (4) for port 's_axil_wstrb'. The port definition is at: rtl/axil_response_addr_invalid_wr.sv(20).
#    Time: 0 ns  Iteration: 0  Instance: /axil_interconnect_tb/axil_interconnect_wrapper_inst/axil_interconnect_inst/axil_response_addr_invalid_wr[5]/axil_response_addr_invalid_wr File: rtl/axil_interconnect.sv Line: 239
# ** Warning: (vsim-3015) [PCDPC] - Port size (32) does not match connection size (1) for port 's_axil_wdata'. The port definition is at: rtl/axil_response_addr_invalid_wr.sv(19).
#    Time: 0 ns  Iteration: 0  Instance: /axil_interconnect_tb/axil_interconnect_wrapper_inst/axil_interconnect_inst/axil_response_addr_invalid_wr[6]/axil_response_addr_invalid_wr File: rtl/axil_interconnect.sv Line: 239
# ** Warning: (vsim-3015) [PCDPC] - Port size (8) does not match connection size (4) for port 's_axil_wstrb'. The port definition is at: rtl/axil_response_addr_invalid_wr.sv(20).
#    Time: 0 ns  Iteration: 0  Instance: /axil_interconnect_tb/axil_interconnect_wrapper_inst/axil_interconnect_inst/axil_response_addr_invalid_wr[6]/axil_response_addr_invalid_wr File: rtl/axil_interconnect.sv Line: 239
# ** Warning: (vsim-3015) [PCDPC] - Port size (32) does not match connection size (1) for port 's_axil_wdata'. The port definition is at: rtl/axil_response_addr_invalid_wr.sv(19).
#    Time: 0 ns  Iteration: 0  Instance: /axil_interconnect_tb/axil_interconnect_wrapper_inst/axil_interconnect_inst/axil_response_addr_invalid_wr[7]/axil_response_addr_invalid_wr File: rtl/axil_interconnect.sv Line: 239
# ** Warning: (vsim-3015) [PCDPC] - Port size (8) does not match connection size (4) for port 's_axil_wstrb'. The port definition is at: rtl/axil_response_addr_invalid_wr.sv(20).
#    Time: 0 ns  Iteration: 0  Instance: /axil_interconnect_tb/axil_interconnect_wrapper_inst/axil_interconnect_inst/axil_response_addr_invalid_wr[7]/axil_response_addr_invalid_wr File: rtl/axil_interconnect.sv Line: 239
# ** Warning: (vsim-3015) [PCDPC] - Port size (32) does not match connection size (1) for port 's_axil_wdata'. The port definition is at: rtl/axil_response_addr_invalid_wr.sv(19).
#    Time: 0 ns  Iteration: 0  Instance: /axil_interconnect_tb/axil_interconnect_wrapper_inst/axil_interconnect_inst/axil_response_addr_invalid_wr[8]/axil_response_addr_invalid_wr File: rtl/axil_interconnect.sv Line: 239
# ** Warning: (vsim-3015) [PCDPC] - Port size (8) does not match connection size (4) for port 's_axil_wstrb'. The port definition is at: rtl/axil_response_addr_invalid_wr.sv(20).
#    Time: 0 ns  Iteration: 0  Instance: /axil_interconnect_tb/axil_interconnect_wrapper_inst/axil_interconnect_inst/axil_response_addr_invalid_wr[8]/axil_response_addr_invalid_wr File: rtl/axil_interconnect.sv Line: 239
# ** Warning: (vsim-3015) [PCDPC] - Port size (32) does not match connection size (1) for port 's_axil_wdata'. The port definition is at: rtl/axil_response_addr_invalid_wr.sv(19).
#    Time: 0 ns  Iteration: 0  Instance: /axil_interconnect_tb/axil_interconnect_wrapper_inst/axil_interconnect_inst/axil_response_addr_invalid_wr[9]/axil_response_addr_invalid_wr File: rtl/axil_interconnect.sv Line: 239
# ** Warning: (vsim-3015) [PCDPC] - Port size (8) does not match connection size (4) for port 's_axil_wstrb'. The port definition is at: rtl/axil_response_addr_invalid_wr.sv(20).
#    Time: 0 ns  Iteration: 0  Instance: /axil_interconnect_tb/axil_interconnect_wrapper_inst/axil_interconnect_inst/axil_response_addr_invalid_wr[9]/axil_response_addr_invalid_wr File: rtl/axil_interconnect.sv Line: 239
# ** Warning: (vsim-3015) [PCDPC] - Port size (32) does not match connection size (1) for port 's_axil_wdata'. The port definition is at: rtl/axil_response_addr_invalid_wr.sv(19).
#    Time: 0 ns  Iteration: 0  Instance: /axil_interconnect_tb/axil_interconnect_wrapper_inst/axil_interconnect_inst/axil_response_addr_invalid_wr[10]/axil_response_addr_invalid_wr File: rtl/axil_interconnect.sv Line: 239
# ** Warning: (vsim-3015) [PCDPC] - Port size (8) does not match connection size (4) for port 's_axil_wstrb'. The port definition is at: rtl/axil_response_addr_invalid_wr.sv(20).
#    Time: 0 ns  Iteration: 0  Instance: /axil_interconnect_tb/axil_interconnect_wrapper_inst/axil_interconnect_inst/axil_response_addr_invalid_wr[10]/axil_response_addr_invalid_wr File: rtl/axil_interconnect.sv Line: 239
# ** Warning: (vsim-3015) [PCDPC] - Port size (32) does not match connection size (1) for port 's_axil_wdata'. The port definition is at: rtl/axil_response_addr_invalid_wr.sv(19).
#    Time: 0 ns  Iteration: 0  Instance: /axil_interconnect_tb/axil_interconnect_wrapper_inst/axil_interconnect_inst/axil_response_addr_invalid_wr[11]/axil_response_addr_invalid_wr File: rtl/axil_interconnect.sv Line: 239
# ** Warning: (vsim-3015) [PCDPC] - Port size (8) does not match connection size (4) for port 's_axil_wstrb'. The port definition is at: rtl/axil_response_addr_invalid_wr.sv(20).
#    Time: 0 ns  Iteration: 0  Instance: /axil_interconnect_tb/axil_interconnect_wrapper_inst/axil_interconnect_inst/axil_response_addr_invalid_wr[11]/axil_response_addr_invalid_wr File: rtl/axil_interconnect.sv Line: 239
# ** Warning: (vsim-3015) [PCDPC] - Port size (32) does not match connection size (1) for port 's_axil_wdata'. The port definition is at: rtl/axil_response_addr_invalid_wr.sv(19).
#    Time: 0 ns  Iteration: 0  Instance: /axil_interconnect_tb/axil_interconnect_wrapper_inst/axil_interconnect_inst/axil_response_addr_invalid_wr[12]/axil_response_addr_invalid_wr File: rtl/axil_interconnect.sv Line: 239
# ** Warning: (vsim-3015) [PCDPC] - Port size (8) does not match connection size (4) for port 's_axil_wstrb'. The port definition is at: rtl/axil_response_addr_invalid_wr.sv(20).
#    Time: 0 ns  Iteration: 0  Instance: /axil_interconnect_tb/axil_interconnect_wrapper_inst/axil_interconnect_inst/axil_response_addr_invalid_wr[12]/axil_response_addr_invalid_wr File: rtl/axil_interconnect.sv Line: 239
# ** Warning: (vsim-3015) [PCDPC] - Port size (32) does not match connection size (1) for port 's_axil_wdata'. The port definition is at: rtl/axil_response_addr_invalid_wr.sv(19).
#    Time: 0 ns  Iteration: 0  Instance: /axil_interconnect_tb/axil_interconnect_wrapper_inst/axil_interconnect_inst/axil_response_addr_invalid_wr[13]/axil_response_addr_invalid_wr File: rtl/axil_interconnect.sv Line: 239
# ** Warning: (vsim-3015) [PCDPC] - Port size (8) does not match connection size (4) for port 's_axil_wstrb'. The port definition is at: rtl/axil_response_addr_invalid_wr.sv(20).
#    Time: 0 ns  Iteration: 0  Instance: /axil_interconnect_tb/axil_interconnect_wrapper_inst/axil_interconnect_inst/axil_response_addr_invalid_wr[13]/axil_response_addr_invalid_wr File: rtl/axil_interconnect.sv Line: 239
# ** Warning: (vsim-3015) [PCDPC] - Port size (32) does not match connection size (1) for port 's_axil_wdata'. The port definition is at: rtl/axil_response_addr_invalid_wr.sv(19).
#    Time: 0 ns  Iteration: 0  Instance: /axil_interconnect_tb/axil_interconnect_wrapper_inst/axil_interconnect_inst/axil_response_addr_invalid_wr[14]/axil_response_addr_invalid_wr File: rtl/axil_interconnect.sv Line: 239
# ** Warning: (vsim-3015) [PCDPC] - Port size (8) does not match connection size (4) for port 's_axil_wstrb'. The port definition is at: rtl/axil_response_addr_invalid_wr.sv(20).
#    Time: 0 ns  Iteration: 0  Instance: /axil_interconnect_tb/axil_interconnect_wrapper_inst/axil_interconnect_inst/axil_response_addr_invalid_wr[14]/axil_response_addr_invalid_wr File: rtl/axil_interconnect.sv Line: 239
# ** Warning: (vsim-3015) [PCDPC] - Port size (32) does not match connection size (1) for port 's_axil_wdata'. The port definition is at: rtl/axil_response_addr_invalid_wr.sv(19).
#    Time: 0 ns  Iteration: 0  Instance: /axil_interconnect_tb/axil_interconnect_wrapper_inst/axil_interconnect_inst/axil_response_addr_invalid_wr[15]/axil_response_addr_invalid_wr File: rtl/axil_interconnect.sv Line: 239
